
[2019-11-04 10:20:32.846]# RECV HEX>
03 03 00 5F 00 01 B5 FA 

[2019-11-04 10:20:32.987]# RECV HEX>
03 03 00 5F 00 01 B5 FA 

[2019-11-04 10:20:33.267]# RECV HEX>
04 03 00 5F 00 01 B4 4D 04 03 02 00 00 74 44 06 03 00 02 00 04 E4 7E 06 03 08 00 77 00 D0 02 F2 01 59 28 97 05 03 00 00 00 0E C5 8A 05 03 1C 00 00 00 00 00 00 00 00 00 00 00 00 00 00 00 00 00 00 00 00 00 00 00 00 00 00 00 00 1D 67 

[2019-11-04 10:20:33.423]# RECV HEX>
00 06 00 B6 00 01 A8 3D 00 06 00 B6 00 01 A8 3D 01 06 00 66 00 00 69 D5 01 06 00 66 00 00 69 D5 02 06 00 66 00 00 69 E6 02 06 00 66 00 00 69 E6 03 06 00 66 00 00 68 37 

[2019-11-04 10:20:33.564]# RECV HEX>
03 06 00 66 00 00 68 37 

[2019-11-04 10:20:33.689]# RECV HEX>
03 06 00 66 00 00 68 37 

[2019-11-04 10:20:33.938]# RECV HEX>
04 06 00 66 00 00 69 80 04 06 00 66 00 00 69 80 01 06 00 56 80 53 48 27 01 06 00 56 80 53 48 27 02 06 00 56 00 00 69 E9 02 06 00 56 00 00 69 E9 03 06 00 56 00 00 68 38 

[2019-11-04 10:20:34.063]# RECV HEX>
03 06 00 56 00 00 68 38 

[2019-11-04 10:20:34.203]# RECV HEX>
03 06 00 56 00 00 68 38 

[2019-11-04 10:20:34.453]# RECV HEX>
04 06 00 56 00 00 69 8F 04 06 00 56 00 00 69 8F 01 03 00 5F 00 01 B4 18 01 03 02 00 00 B8 44 02 03 00 5F 00 01 B4 2B 02 03 02 00 00 FC 44 03 03 00 5F 00 01 B5 FA 

[2019-11-04 10:20:34.593]# RECV HEX>
03 03 00 5F 00 01 B5 FA 

[2019-11-04 10:20:34.718]# RECV HEX>
03 03 00 5F 00 01 B5 FA 

[2019-11-04 10:20:34.921]# RECV HEX>
04 03 00 5F 00 01 B4 4D 04 03 02 00 00 74 44 06 03 00 02 00 04 E4 7E 06 03 08 00 7E 00 C7 03 18 01 6C 25 8B 

[2019-11-04 10:20:35.015]# RECV HEX>
05 03 00 00 00 0E C5 8A 05 03 1C 00 00 00 00 00 00 00 00 00 00 00 00 00 00 00 00 00 00 00 00 00 00 00 00 00 00 00 00 1D 67 

[2019-11-04 10:20:35.155]# RECV HEX>
00 06 00 B6 00 01 A8 3D 00 06 00 B6 00 01 A8 3D 01 06 00 66 00 00 69 D5 01 06 00 66 00 00 69 D5 02 06 00 66 00 00 69 E6 02 06 00 66 00 00 69 E6 03 06 00 66 00 00 68 37 

[2019-11-04 10:20:35.280]# RECV HEX>
03 06 00 66 00 00 68 37 

[2019-11-04 10:20:35.405]# RECV HEX>
03 06 00 66 00 00 68 37 

[2019-11-04 10:20:35.670]# RECV HEX>
04 06 00 66 00 00 69 80 04 06 00 66 00 00 69 80 01 06 00 56 80 53 48 27 01 06 00 56 80 53 48 27 02 06 00 56 00 00 69 E9 02 06 00 56 00 00 69 E9 03 06 00 56 00 00 68 38 

[2019-11-04 10:20:35.795]# RECV HEX>
03 06 00 56 00 00 68 38 

[2019-11-04 10:20:35.935]# RECV HEX>
03 06 00 56 00 00 68 38 

[2019-11-04 10:20:36.200]# RECV HEX>
04 06 00 56 00 00 69 8F 04 06 00 56 00 00 69 8F 01 03 00 5F 00 01 B4 18 01 03 02 00 00 B8 44 02 03 00 5F 00 01 B4 2B 02 03 02 00 00 FC 44 03 03 00 5F 00 01 B5 FA 

[2019-11-04 10:20:36.325]# RECV HEX>
03 03 00 5F 00 01 B5 FA 

[2019-11-04 10:20:36.465]# RECV HEX>
03 03 00 5F 00 01 B5 FA 

[2019-11-04 10:20:36.746]# RECV HEX>
04 03 00 5F 00 01 B4 4D 04 03 02 00 00 74 44 06 03 00 02 00 04 E4 7E 06 03 08 00 8A 00 D5 03 00 01 59 68 57 05 03 00 00 00 0E C5 8A 05 03 1C 00 00 00 00 00 00 00 00 00 00 00 00 00 00 00 00 00 00 00 00 00 00 00 00 00 00 00 00 1D 67 

[2019-11-04 10:20:36.887]# RECV HEX>
00 06 00 B6 00 01 A8 3D 00 06 00 B6 00 01 A8 3D 01 06 00 66 00 00 69 D5 01 06 00 66 00 00 69 D5 02 06 00 66 00 00 69 E6 02 06 00 66 00 00 69 E6 03 06 00 66 00 00 68 37 

[2019-11-04 10:20:37.011]# RECV HEX>
03 06 00 66 00 00 68 37 

[2019-11-04 10:20:37.136]# RECV HEX>
03 06 00 66 00 00 68 37 

[2019-11-04 10:20:37.386]# RECV HEX>
04 06 00 66 00 00 69 80 04 06 00 66 00 00 69 80 01 06 00 56 80 53 48 27 01 06 00 56 80 53 48 27 02 06 00 56 00 00 69 E9 02 06 00 56 00 00 69 E9 03 06 00 56 00 00 68 38 

[2019-11-04 10:20:37.511]# RECV HEX>
03 06 00 56 00 00 68 38 

[2019-11-04 10:20:37.651]# RECV HEX>
03 06 00 56 00 00 68 38 

[2019-11-04 10:20:37.916]# RECV HEX>
04 06 00 56 00 00 69 8F 04 06 00 56 00 00 69 8F 01 03 00 5F 00 01 B4 18 01 03 02 00 00 B8 44 02 03 00 5F 00 01 B4 2B 02 03 02 00 00 FC 44 03 03 00 5F 00 01 B5 FA 

[2019-11-04 10:20:38.057]# RECV HEX>
03 03 00 5F 00 01 B5 FA 

[2019-11-04 10:20:38.181]# RECV HEX>
03 03 00 5F 00 01 B5 FA 

[2019-11-04 12:08:45.462]# RECV HEX>
00 06 00 B6 00 01 A8 3D 00 06 00 B6 00 01 A8 3D 01 06 00 66 00 00 69 D5 01 06 00 66 00 00 69 D5 02 06 00 66 00 00 69 E6 02 06 00 66 00 00 69 E6 03 06 00 66 00 00 68 37 03 06 00 66 00 00 68 37 04 06 00 66 00 00 69 80 04 06 00 66 00 00 69 80 01 06 00 56 00 00 69 DA 01 06 00 56 00 00 69 DA 02 06 00 56 00 00 69 E9 02 06 00 56 00 00 69 E9 03 06 00 56 00 00 68 38 03 06 00 56 00 00 68 38 04 06 00 56 00 00 69 8F 04 06 00 56 00 00 69 8F 01 03 00 5F 00 01 B4 18 01 03 02 00 00 B8 44 02 03 00 5F 00 01 B4 2B 02 03 02 00 00 FC 44 03 03 00 5F 00 01 B5 FA 03 03 02 00 00 C1 84 04 03 00 5F 00 01 B4 4D 04 03 02 00 00 74 44 

[2019-11-04 12:08:45.603]# RECV HEX>
06 03 00 02 00 04 E4 7E 06 03 08 00 FC 01 AE 02 A7 01 3F AA 7E 05 03 00 00 00 0E C5 8A 05 03 1C 00 00 00 00 00 00 00 00 00 00 00 00 00 00 00 00 00 00 00 00 00 00 00 00 00 00 00 00 1D 67 

[2019-11-04 12:08:45.946]# RECV HEX>
00 06 00 B6 00 01 A8 3D 00 06 00 B6 00 01 A8 3D 01 06 00 66 00 00 69 D5 01 06 00 66 00 00 69 D5 02 06 00 66 00 00 69 E6 02 06 00 66 00 00 69 E6 03 06 00 66 00 00 68 37 03 06 00 66 00 00 68 37 04 06 00 66 00 00 69 80 04 06 00 66 00 00 69 80 01 06 00 56 00 00 69 DA 01 06 00 56 00 00 69 DA 02 06 00 56 00 00 69 E9 02 06 00 56 00 00 69 E9 03 06 00 56 00 00 68 38 03 06 00 56 00 00 68 38 04 06 00 56 00 00 69 8F 04 06 00 56 00 00 69 8F 

[2019-11-04 12:08:46.258]# RECV HEX>
01 03 00 5F 00 01 B4 18 01 03 02 00 00 B8 44 02 03 00 5F 00 01 B4 2B 02 03 02 00 00 FC 44 03 03 00 5F 00 01 B5 FA 03 03 02 00 00 C1 84 04 03 00 5F 00 01 B4 4D 04 03 02 00 00 74 44 06 03 00 02 00 04 E4 7E 06 03 08 00 F3 01 A2 02 B9 01 8B 25 0E 05 03 00 00 00 0E C5 8A 05 03 1C 00 00 00 00 00 00 00 00 00 00 00 00 00 00 00 00 00 00 00 00 00 00 00 00 00 00 00 00 1D 67 

[2019-11-04 12:08:46.913]# RECV HEX>
00 06 00 B6 00 01 A8 3D 00 06 00 B6 00 01 A8 3D 01 06 00 66 00 00 69 D5 01 06 00 66 00 00 69 D5 02 06 00 66 00 00 69 E6 02 06 00 66 00 00 69 E6 03 06 00 66 00 00 68 37 03 06 00 66 00 00 68 37 04 06 00 66 00 00 69 80 04 06 00 66 00 00 69 80 01 06 00 56 00 00 69 DA 01 06 00 56 00 00 69 DA 02 06 00 56 00 00 69 E9 02 06 00 56 00 00 69 E9 03 06 00 56 00 00 68 38 03 06 00 56 00 00 68 38 04 06 00 56 00 00 69 8F 04 06 00 56 00 00 69 8F 01 03 00 5F 00 01 B4 18 01 03 02 00 00 B8 44 02 03 00 5F 00 01 B4 2B 02 03 02 00 00 FC 44 03 03 00 5F 00 01 B5 FA 03 03 02 00 00 C1 84 04 03 00 5F 00 01 B4 4D 04 03 02 00 00 74 44 06 03 00 02 00 04 E4 7E 06 03 08 00 F4 01 94 02 F8 01 92 0A 14 05 03 00 00 00 0E C5 8A 05 03 1C 00 00 00 00 00 00 00 00 00 00 00 00 00 00 00 00 00 00 00 00 00 00 00 00 00 00 00 00 1D 67 

[2019-11-04 12:08:47.131]# RECV HEX>
00 06 00 B6 00 01 A8 3D 00 06 00 B6 00 01 A8 3D 01 06 00 66 00 00 69 D5 01 06 00 66 00 00 69 D5 02 06 00 66 00 00 69 E6 02 06 00 66 00 00 69 E6 03 06 00 66 00 00 68 37 03 06 00 66 00 00 68 37 04 06 00 66 00 00 69 80 04 06 00 66 00 00 69 80 01 06 00 56 00 00 69 DA 01 06 00 56 00 00 69 DA 

[2019-11-04 12:08:47.553]# RECV HEX>
02 06 00 56 00 00 69 E9 02 06 00 56 00 00 69 E9 03 06 00 56 00 00 68 38 03 06 00 56 00 00 68 38 04 06 00 56 00 00 69 8F 04 06 00 56 00 00 69 8F 01 03 00 5F 00 01 B4 18 01 03 02 00 00 B8 44 02 03 00 5F 00 01 B4 2B 02 03 02 00 00 FC 44 03 03 00 5F 00 01 B5 FA 03 03 02 00 00 C1 84 04 03 00 5F 00 01 B4 4D 04 03 02 00 00 74 44 06 03 00 02 00 04 E4 7E 06 03 08 00 F2 01 93 03 00 01 96 58 1A 05 03 00 00 00 0E C5 8A 05 03 1C 00 00 00 00 00 00 00 00 00 00 00 00 00 00 00 00 00 00 00 00 00 00 00 00 00 00 00 00 1D 67 

[2019-11-04 12:08:48.208]# RECV HEX>
00 06 00 B6 00 01 A8 3D 00 06 00 B6 00 01 A8 3D 01 06 00 66 00 00 69 D5 01 06 00 66 00 00 69 D5 02 06 00 66 00 00 69 E6 02 06 00 66 00 00 69 E6 03 06 00 66 00 00 68 37 03 06 00 66 00 00 68 37 04 06 00 66 00 00 69 80 04 06 00 66 00 00 69 80 01 06 00 56 00 00 69 DA 01 06 00 56 00 00 69 DA 02 06 00 56 00 00 69 E9 02 06 00 56 00 00 69 E9 03 06 00 56 00 00 68 38 03 06 00 56 00 00 68 38 04 06 00 56 00 00 69 8F 04 06 00 56 00 00 69 8F 01 03 00 5F 00 01 B4 18 01 03 02 00 00 B8 44 02 03 00 5F 00 01 B4 2B 02 03 02 00 00 FC 44 03 03 00 5F 00 01 B5 FA 03 03 02 00 00 C1 84 04 03 00 5F 00 01 B4 4D 04 03 02 00 00 74 44 06 03 00 02 00 04 E4 7E 06 03 08 00 F7 01 A8 02 FF 01 90 59 11 05 03 00 00 00 0E C5 8A 05 03 1C 00 00 00 00 00 00 00 00 00 00 00 00 00 00 00 00 00 00 00 00 00 00 00 00 00 00 00 00 1D 67 

[2019-11-04 12:08:48.847]# RECV HEX>
00 06 00 B6 00 01 A8 3D 00 06 00 B6 00 01 A8 3D 01 06 00 66 00 00 69 D5 01 06 00 66 00 00 69 D5 02 06 00 66 00 00 69 E6 02 06 00 66 00 00 69 E6 03 06 00 66 00 00 68 37 03 06 00 66 00 00 68 37 04 06 00 66 00 00 69 80 04 06 00 66 00 00 69 80 01 06 00 56 00 00 69 DA 01 06 00 56 00 00 69 DA 02 06 00 56 00 00 69 E9 02 06 00 56 00 00 69 E9 03 06 00 56 00 00 68 38 03 06 00 56 00 00 68 38 04 06 00 56 00 00 69 8F 04 06 00 56 00 00 69 8F 01 03 00 5F 00 01 B4 18 01 03 02 00 00 B8 44 02 03 00 5F 00 01 B4 2B 02 03 02 00 00 FC 44 03 03 00 5F 00 01 B5 FA 03 03 02 00 00 C1 84 04 03 00 5F 00 01 B4 4D 04 03 02 00 00 74 44 06 03 00 02 00 04 E4 7E 06 03 08 00 F6 01 95 03 04 01 9C 54 1C 05 03 00 00 00 0E C5 8A 05 03 1C 00 00 00 00 00 00 00 00 00 00 00 00 00 00 00 00 00 00 00 00 00 00 00 00 00 00 00 00 1D 67 

[2019-11-04 12:08:49.503]# RECV HEX>
00 06 00 B6 00 01 A8 3D 00 06 00 B6 00 01 A8 3D 01 06 00 66 00 00 69 D5 01 06 00 66 00 00 69 D5 02 06 00 66 00 00 69 E6 02 06 00 66 00 00 69 E6 03 06 00 66 00 00 68 37 03 06 00 66 00 00 68 37 04 06 00 66 00 00 69 80 04 06 00 66 00 00 69 80 01 06 00 56 00 00 69 DA 01 06 00 56 00 00 69 DA 02 06 00 56 00 00 69 E9 02 06 00 56 00 00 69 E9 03 06 00 56 00 00 68 38 03 06 00 56 00 00 68 38 04 06 00 56 00 00 69 8F 04 06 00 56 00 00 69 8F 01 03 00 5F 00 01 B4 18 01 03 02 00 00 B8 44 02 03 00 5F 00 01 B4 2B 02 03 02 00 00 FC 44 03 03 00 5F 00 01 B5 FA 03 03 02 00 00 C1 84 04 03 00 5F 00 01 B4 4D 04 03 02 00 00 74 44 06 03 00 02 00 04 E4 7E 06 03 08 00 F1 01 95 03 01 01 9D F3 1D 05 03 00 00 00 0E C5 8A 05 03 1C 00 00 00 00 00 00 00 00 00 00 00 00 00 00 00 00 00 00 00 00 00 00 00 00 00 00 00 00 1D 67 

[2019-11-04 12:08:50.158]# RECV HEX>
00 06 00 B6 00 01 A8 3D 00 06 00 B6 00 01 A8 3D 01 06 00 66 00 00 69 D5 01 06 00 66 00 00 69 D5 02 06 00 66 00 00 69 E6 02 06 00 66 00 00 69 E6 03 06 00 66 00 00 68 37 03 06 00 66 00 00 68 37 04 06 00 66 00 00 69 80 04 06 00 66 00 00 69 80 01 06 00 56 00 00 69 DA 01 06 00 56 00 00 69 DA 02 06 00 56 00 00 69 E9 02 06 00 56 00 00 69 E9 03 06 00 56 00 00 68 38 03 06 00 56 00 00 68 38 04 06 00 56 00 00 69 8F 04 06 00 56 00 00 69 8F 01 03 00 5F 00 01 B4 18 01 03 02 00 00 B8 44 02 03 00 5F 00 01 B4 2B 02 03 02 00 00 FC 44 03 03 00 5F 00 01 B5 FA 03 03 02 00 00 C1 84 04 03 00 5F 00 01 B4 4D 04 03 02 00 00 74 44 06 03 00 02 00 04 E4 7E 06 03 08 01 08 01 A7 02 FF 01 88 C3 D9 05 03 00 00 00 0E C5 8A 05 03 1C 00 00 00 00 00 00 00 00 00 00 00 00 00 00 00 00 00 00 00 00 00 00 00 00 00 00 00 00 1D 67 

[2019-11-04 12:08:50.236]# RECV HEX>
00 06 00 B6 00 01 A8 3D 00 06 00 B6 00 01 A8 15 64 04 64 01 01 A5 55 01 06 00 66 00 00 69 D5 

[2019-11-04 12:08:50.922]# RECV HEX>
01 06 00 66 00 00 69 D5 01 06 00 66 00 00 69 D5 02 06 00 66 00 00 69 E6 02 06 00 66 00 00 69 E6 03 06 00 66 00 00 68 37 03 06 00 66 00 00 68 37 04 06 00 66 00 00 69 80 04 06 00 66 00 00 69 80 01 06 00 56 00 00 69 DA 01 06 00 56 00 00 69 DA 02 06 00 56 00 00 69 E9 02 06 00 56 00 00 69 E9 03 06 00 56 00 00 68 38 03 06 00 56 00 00 68 38 04 06 00 56 00 00 69 8F 04 06 00 56 00 00 69 8F 01 03 00 5F 00 01 B4 18 01 03 02 00 00 B8 44 02 03 00 5F 00 01 B4 2B 02 03 02 00 00 FC 44 03 03 00 5F 00 01 B5 FA 03 03 02 00 00 C1 84 04 03 00 5F 00 01 B4 4D 04 03 02 00 00 74 44 06 03 00 02 00 04 E4 7E 06 03 08 00 FE 01 9D 02 FE 01 A2 9C 00 05 03 00 00 00 0E C5 8A 05 03 1C 00 00 00 00 00 00 00 00 00 00 00 00 00 00 00 00 00 00 00 00 00 00 00 00 00 00 00 00 1D 67 

[2019-11-04 12:08:51.000]# RECV HEX>
00 06 00 B6 00 01 A8 3D 00 06 00 B6 00 01 A8 01 64 04 64 01 01 A5 55 01 06 00 66 00 00 69 D5 

[2019-11-04 12:08:51.687]# RECV HEX>
01 06 00 66 00 00 69 D5 01 06 00 66 00 00 69 D5 02 06 00 66 00 00 69 E6 02 06 00 66 00 00 69 E6 03 06 00 66 00 00 68 37 03 06 00 66 00 00 68 37 04 06 00 66 00 00 69 80 04 06 00 66 00 00 69 80 01 06 00 56 00 00 69 DA 01 06 00 56 00 00 69 DA 02 06 00 56 00 00 69 E9 02 06 00 56 00 00 69 E9 03 06 00 56 00 00 68 38 03 06 00 56 00 00 68 38 04 06 00 56 00 00 69 8F 04 06 00 56 00 00 69 8F 01 03 00 5F 00 01 B4 18 01 03 02 00 00 B8 44 02 03 00 5F 00 01 B4 2B 02 03 02 00 00 FC 44 03 03 00 5F 00 01 B5 FA 03 03 02 00 00 C1 84 04 03 00 5F 00 01 B4 4D 04 03 02 00 00 74 44 06 03 00 02 00 04 E4 7E 06 03 08 01 03 01 9C 03 10 01 96 2C DD 05 03 00 00 00 0E C5 8A 05 03 1C 00 00 00 00 00 00 00 00 00 00 00 00 00 00 00 00 00 00 00 00 00 00 00 00 00 00 00 00 1D 67 

[2019-11-04 12:08:51.780]# RECV HEX>
00 06 00 B6 00 01 A8 3D 00 06 00 B6 00 01 A8 09 32 02 32 01 01 A5 55 01 06 00 66 00 00 69 D5 

[2019-11-04 12:08:52.451]# RECV HEX>
01 06 00 66 00 00 69 D5 01 06 00 66 00 00 69 D5 02 06 00 66 00 00 69 E6 02 06 00 66 00 00 69 E6 03 06 00 66 00 00 68 37 03 06 00 66 00 00 68 37 04 06 00 66 00 00 69 80 04 06 00 66 00 00 69 80 01 06 00 56 00 00 69 DA 01 06 00 56 00 00 69 DA 02 06 00 56 00 00 69 E9 02 06 00 56 00 00 69 E9 03 06 00 56 00 00 68 38 03 06 00 56 00 00 68 38 04 06 00 56 00 00 69 8F 04 06 00 56 00 00 69 8F 01 03 00 5F 00 01 B4 18 01 03 02 00 00 B8 44 02 03 00 5F 00 01 B4 2B 02 03 02 00 00 FC 44 03 03 00 5F 00 01 B5 FA 03 03 02 00 00 C1 84 04 03 00 5F 00 01 B4 4D 04 03 02 00 00 74 44 06 03 00 02 00 04 E4 7E 06 03 08 01 07 01 99 02 F8 01 A6 24 C1 05 03 00 00 00 0E C5 8A 05 03 1C 00 00 00 00 00 00 00 00 00 00 00 00 00 00 00 00 00 00 00 00 00 00 00 00 00 00 00 00 1D 67 

[2019-11-04 12:08:53.106]# RECV HEX>
00 06 00 B6 00 01 A8 3D 00 06 00 B6 00 01 A8 3D 01 06 00 66 00 00 69 D5 01 06 00 66 00 00 69 D5 02 06 00 66 00 00 69 E6 02 06 00 66 00 00 69 E6 03 06 00 66 00 00 68 37 03 06 00 66 00 00 68 37 04 06 00 66 00 00 69 80 04 06 00 66 00 00 69 80 01 06 00 56 00 00 69 DA 01 06 00 56 00 00 69 DA 02 06 00 56 00 00 69 E9 02 06 00 56 00 00 69 E9 03 06 00 56 00 00 68 38 03 06 00 56 00 00 68 38 04 06 00 56 00 00 69 8F 04 06 00 56 00 00 69 8F 01 03 00 5F 00 01 B4 18 01 03 02 00 00 B8 44 02 03 00 5F 00 01 B4 2B 02 03 02 00 00 FC 44 03 03 00 5F 00 01 B5 FA 03 03 02 00 00 C1 84 04 03 00 5F 00 01 B4 4D 04 03 02 00 00 74 44 06 03 00 02 00 04 E4 7E 06 03 08 00 ED 01 9E 03 00 01 9B 5A DF 05 03 00 00 00 0E C5 8A 05 03 1C 00 00 00 00 00 00 00 00 00 00 00 00 00 00 00 00 00 00 00 00 00 00 00 00 00 00 00 00 1D 67 

[2019-11-04 12:08:53.761]# RECV HEX>
00 06 00 B6 00 01 A8 3D 00 06 00 B6 00 01 A8 3D 01 06 00 66 00 00 69 D5 01 06 00 66 00 00 69 D5 02 06 00 66 00 00 69 E6 02 06 00 66 00 00 69 E6 03 06 00 66 00 00 68 37 03 06 00 66 00 00 68 37 04 06 00 66 00 00 69 80 04 06 00 66 00 00 69 80 01 06 00 56 00 00 69 DA 01 06 00 56 00 00 69 DA 02 06 00 56 00 00 69 E9 02 06 00 56 00 00 69 E9 03 06 00 56 00 00 68 38 03 06 00 56 00 00 68 38 04 06 00 56 00 00 69 8F 04 06 00 56 00 00 69 8F 01 03 00 5F 00 01 B4 18 01 03 02 00 00 B8 44 02 03 00 5F 00 01 B4 2B 02 03 02 00 00 FC 44 03 03 00 5F 00 01 B5 FA 03 03 02 00 00 C1 84 04 03 00 5F 00 01 B4 4D 04 03 02 00 00 74 44 06 03 00 02 00 04 E4 7E 06 03 08 00 FA 01 9F 02 FD 01 8F 90 1D 05 03 00 00 00 0E C5 8A 05 03 1C 00 00 00 00 00 00 00 00 00 00 00 00 00 00 00 00 00 00 00 00 00 00 00 00 00 00 00 00 1D 67 

[2019-11-04 12:08:54.105]# RECV HEX>
00 06 00 B6 00 01 A8 3D 00 06 00 B6 00 01 A8 3D 01 06 00 66 00 00 69 D5 01 06 00 66 00 00 69 D5 02 06 00 66 00 00 69 E6 02 06 00 66 00 00 69 E6 03 06 00 66 00 00 68 37 03 06 00 66 00 00 68 37 04 06 00 66 00 00 69 80 04 06 00 66 00 00 69 80 01 06 00 56 00 00 69 DA 01 06 00 56 00 00 69 DA 02 06 00 56 00 00 69 E9 02 06 00 56 00 00 69 E9 03 06 00 56 00 00 68 38 03 06 00 56 00 00 68 38 04 06 00 56 00 00 69 8F 04 06 00 56 00 00 69 8F 

[2019-11-04 12:08:54.417]# RECV HEX>
01 03 00 5F 00 01 B4 18 01 03 02 00 00 B8 44 02 03 00 5F 00 01 B4 2B 02 03 02 00 00 FC 44 03 03 00 5F 00 01 B5 FA 03 03 02 00 00 C1 84 04 03 00 5F 00 01 B4 4D 04 03 02 00 00 74 44 06 03 00 02 00 04 E4 7E 06 03 08 00 F4 01 A4 03 05 01 9D 9A 18 05 03 00 00 00 0E C5 8A 05 03 1C 00 00 00 00 00 00 00 00 00 00 00 00 00 00 00 00 00 00 00 00 00 00 00 00 00 00 00 00 1D 67 

[2019-11-04 12:08:54.978]# RECV HEX>
00 06 00 B6 00 01 A8 3D 00 06 00 B6 00 01 A8 3D 01 06 00 66 00 00 69 D5 01 06 00 66 00 00 69 D5 02 06 00 66 00 00 69 E6 02 06 00 66 00 00 69 E6 03 06 00 66 00 00 68 37 03 06 00 66 00 00 68 37 04 06 00 66 00 00 69 80 04 06 00 66 00 00 69 80 01 06 00 56 00 00 69 DA 01 06 00 56 00 00 69 DA 02 06 00 56 00 00 69 E9 02 06 00 56 00 00 69 E9 03 06 00 56 00 00 68 38 03 06 00 56 00 00 68 38 04 06 00 56 00 00 69 8F 04 06 00 56 00 00 69 8F 01 03 00 5F 00 01 B4 18 01 03 02 00 00 B8 44 02 03 00 5F 00 01 B4 2B 02 03 02 00 00 FC 44 03 03 00 5F 00 01 B5 FA 03 03 02 00 00 C1 84 04 03 00 5F 00 01 B4 4D 04 03 02 00 00 74 44 06 03 00 02 00 04 E4 7E 06 03 08 00 FD 01 9F 02 EE 01 8C 57 19 

[2019-11-04 12:08:55.072]# RECV HEX>
05 03 00 00 00 0E C5 8A 05 03 1C 00 00 00 00 00 00 00 00 00 00 00 00 00 00 00 00 00 00 00 00 00 00 00 00 00 00 00 00 1D 67 

[2019-11-04 12:08:55.711]# RECV HEX>
00 06 00 B6 00 01 A8 3D 00 06 00 B6 00 01 A8 3D 01 06 00 66 00 00 69 D5 01 06 00 66 00 00 69 D5 02 06 00 66 00 00 69 E6 02 06 00 66 00 00 69 E6 03 06 00 66 00 00 68 37 03 06 00 66 00 00 68 37 04 06 00 66 00 00 69 80 04 06 00 66 00 00 69 80 01 06 00 56 00 00 69 DA 01 06 00 56 00 00 69 DA 02 06 00 56 00 00 69 E9 02 06 00 56 00 00 69 E9 03 06 00 56 00 00 68 38 03 06 00 56 00 00 68 38 04 06 00 56 00 00 69 8F 04 06 00 56 00 00 69 8F 01 03 00 5F 00 01 B4 18 01 03 02 00 00 B8 44 02 03 00 5F 00 01 B4 2B 02 03 02 00 00 FC 44 03 03 00 5F 00 01 B5 FA 03 03 02 00 00 C1 84 04 03 00 5F 00 01 B4 4D 04 03 02 00 00 74 44 06 03 00 02 00 04 E4 7E 06 03 08 00 EE 01 AC 02 F2 01 9A 31 D4 05 03 00 00 00 0E C5 8A 05 03 1C 00 00 00 00 00 00 00 00 00 00 00 00 00 00 00 00 00 00 00 00 00 00 00 00 00 00 00 00 1D 67 

[2019-11-04 12:08:56.367]# RECV HEX>
00 06 00 B6 00 01 A8 3D 00 06 00 B6 00 01 A8 3D 01 06 00 66 00 00 69 D5 01 06 00 66 00 00 69 D5 02 06 00 66 00 00 69 E6 02 06 00 66 00 00 69 E6 03 06 00 66 00 00 68 37 03 06 00 66 00 00 68 37 04 06 00 66 00 00 69 80 04 06 00 66 00 00 69 80 01 06 00 56 00 00 69 DA 01 06 00 56 00 00 69 DA 02 06 00 56 00 00 69 E9 02 06 00 56 00 00 69 E9 03 06 00 56 00 00 68 38 03 06 00 56 00 00 68 38 04 06 00 56 00 00 69 8F 04 06 00 56 00 00 69 8F 01 03 00 5F 00 01 B4 18 01 03 02 00 00 B8 44 02 03 00 5F 00 01 B4 2B 02 03 02 00 00 FC 44 03 03 00 5F 00 01 B5 FA 03 03 02 00 00 C1 84 04 03 00 5F 00 01 B4 4D 04 03 02 00 00 74 44 06 03 00 02 00 04 E4 7E 06 03 08 00 F4 01 93 02 F4 01 92 7F D7 05 03 00 00 00 0E C5 8A 05 03 1C 00 00 00 00 00 00 00 00 00 00 00 00 00 00 00 00 00 00 00 00 00 00 00 00 00 00 00 00 1D 67 

[2019-11-04 12:08:56.710]# RECV HEX>
00 06 00 B6 00 01 A8 3D 00 06 00 B6 00 01 A8 3D 01 06 00 66 00 00 69 D5 01 06 00 66 00 00 69 D5 02 06 00 66 00 00 69 E6 02 06 00 66 00 00 69 E6 03 06 00 66 00 00 68 37 03 06 00 66 00 00 68 37 04 06 00 66 00 00 69 80 04 06 00 66 00 00 69 80 01 06 00 56 00 00 69 DA 01 06 00 56 00 00 69 DA 02 06 00 56 00 00 69 E9 02 06 00 56 00 00 69 E9 03 06 00 56 00 00 68 38 03 06 00 56 00 00 68 38 04 06 00 56 00 00 69 8F 04 06 00 56 00 00 69 8F 

[2019-11-04 12:08:57.022]# RECV HEX>
01 03 00 5F 00 01 B4 18 01 03 02 00 00 B8 44 02 03 00 5F 00 01 B4 2B 02 03 02 00 00 FC 44 03 03 00 5F 00 01 B5 FA 03 03 02 00 00 C1 84 04 03 00 5F 00 01 B4 4D 04 03 02 00 00 74 44 06 03 00 02 00 04 E4 7E 06 03 08 00 E6 01 90 02 F6 01 9A A9 D0 05 03 00 00 00 0E C5 8A 05 03 1C 00 00 00 00 00 00 00 00 00 00 00 00 00 00 00 00 00 00 00 00 00 00 00 00 00 00 00 00 1D 67 

[2019-11-04 12:08:57.661]# RECV HEX>
00 06 00 B6 00 01 A8 3D 00 06 00 B6 00 01 A8 15 64 04 64 01 01 A5 55 01 06 00 66 00 00 69 D5 02 06 00 66 00 00 69 E6 02 06 00 66 00 00 69 E6 03 06 00 66 00 00 68 37 03 06 00 66 00 00 68 37 04 06 00 66 00 00 69 80 04 06 00 66 00 00 69 80 01 06 00 56 00 00 69 DA 01 06 00 56 00 00 69 DA 02 06 00 56 00 00 69 E9 02 06 00 56 00 00 69 E9 03 06 00 56 00 00 68 38 03 06 00 56 00 00 68 38 04 06 00 56 00 00 69 8F 04 06 00 56 00 00 69 8F 01 03 00 5F 00 01 B4 18 01 03 02 00 00 B8 44 02 03 00 5F 00 01 B4 2B 02 03 02 00 00 FC 44 03 03 00 5F 00 01 B5 FA 03 03 02 00 00 C1 84 04 03 00 5F 00 01 B4 4D 04 03 02 00 00 74 44 06 03 00 02 00 04 E4 7E 06 03 08 00 F1 01 9B 02 F8 01 8E 0A DC 05 03 00 00 00 0E C5 8A 05 03 1C 00 00 00 00 00 00 00 00 00 00 00 00 00 00 00 00 00 00 00 00 00 00 00 00 00 00 00 00 1D 67 

[2019-11-04 12:08:58.005]# RECV HEX>
00 06 00 B6 00 01 A8 3D 00 06 00 B6 00 01 A8 3D 01 06 00 66 00 00 69 D5 01 06 00 66 00 00 69 D5 02 06 00 66 00 00 69 E6 02 06 00 66 00 00 69 E6 03 06 00 66 00 00 68 37 03 06 00 66 00 00 68 37 04 06 00 66 00 00 69 80 04 06 00 66 00 00 69 80 01 06 00 56 00 00 69 DA 01 06 00 56 00 00 69 DA 02 06 00 56 00 00 69 E9 02 06 00 56 00 00 69 E9 03 06 00 56 00 00 68 38 03 06 00 56 00 00 68 38 04 06 00 56 00 00 69 8F 04 06 00 56 00 00 69 8F 

[2019-11-04 12:08:58.317]# RECV HEX>
01 03 00 5F 00 01 B4 18 01 03 02 00 00 B8 44 02 03 00 5F 00 01 B4 2B 02 03 02 00 00 FC 44 03 03 00 5F 00 01 B5 FA 03 03 02 00 00 C1 84 04 03 00 5F 00 01 B4 4D 04 03 02 00 00 74 44 06 03 00 02 00 04 E4 7E 06 03 08 01 07 01 97 02 EF 01 8B 3D 19 05 03 00 00 00 0E C5 8A 05 03 1C 00 00 00 00 00 00 00 00 00 00 00 00 00 00 00 00 00 00 00 00 00 00 00 00 00 00 00 00 1D 67 

[2019-11-04 12:08:58.972]# RECV HEX>
00 06 00 B6 00 01 A8 3D 00 06 00 B6 00 01 A8 3D 01 06 00 66 00 00 69 D5 01 06 00 66 00 00 69 D5 02 06 00 66 00 00 69 E6 02 06 00 66 00 00 69 E6 03 06 00 66 00 00 68 37 03 06 00 66 00 00 68 37 04 06 00 66 00 00 69 80 04 06 00 66 00 00 69 80 01 06 00 56 00 00 69 DA 01 06 00 56 00 00 69 DA 02 06 00 56 00 00 69 E9 02 06 00 56 00 00 69 E9 03 06 00 56 00 00 68 38 03 06 00 56 00 00 68 38 04 06 00 56 00 00 69 8F 04 06 00 56 00 00 69 8F 01 03 00 5F 00 01 B4 18 01 03 02 00 00 B8 44 02 03 00 5F 00 01 B4 2B 02 03 02 00 00 FC 44 03 03 00 5F 00 01 B5 FA 03 03 02 00 00 C1 84 04 03 00 5F 00 01 B4 4D 04 03 02 00 00 74 44 06 03 00 02 00 04 E4 7E 06 03 08 01 06 01 B4 02 EC 01 8C 59 DC 05 03 00 00 00 0E C5 8A 05 03 1C 00 00 00 00 00 00 00 00 00 00 00 00 00 00 00 00 00 00 00 00 00 00 00 00 00 00 00 00 1D 67 

[2019-11-04 12:08:59.611]# RECV HEX>
00 06 00 B6 00 01 A8 3D 00 06 00 B6 00 01 A8 3D 01 06 00 66 00 00 69 D5 01 06 00 66 00 00 69 D5 02 06 00 66 00 00 69 E6 02 06 00 66 00 00 69 E6 03 06 00 66 00 00 68 37 03 06 00 66 00 00 68 37 04 06 00 66 00 00 69 80 04 06 00 66 00 00 69 80 01 06 00 56 00 00 69 DA 01 06 00 56 00 00 69 DA 02 06 00 56 00 00 69 E9 02 06 00 56 00 00 69 E9 03 06 00 56 00 00 68 38 03 06 00 56 00 00 68 38 04 06 00 56 00 00 69 8F 04 06 00 56 00 00 69 8F 01 03 00 5F 00 01 B4 18 01 03 02 00 00 B8 44 02 03 00 5F 00 01 B4 2B 02 03 02 00 00 FC 44 03 03 00 5F 00 01 B5 FA 03 03 02 00 00 C1 84 04 03 00 5F 00 01 B4 4D 04 03 02 00 00 74 44 06 03 00 02 00 04 E4 7E 06 03 08 00 FD 01 A1 02 EA 01 99 FE D2 05 03 00 00 00 0E C5 8A 05 03 1C 00 00 00 00 00 00 00 00 00 00 00 00 00 00 00 00 00 00 00 00 00 00 00 00 00 00 00 00 1D 67 

[2019-11-04 12:08:59.705]# RECV HEX>
00 06 00 B6 00 01 A8 3D 00 06 00 B6 00 01 A8 09 32 02 32 01 01 A5 55 01 06 00 66 00 00 69 D5 

[2019-11-04 12:09:00.391]# RECV HEX>
01 06 00 66 00 00 69 D5 01 06 00 66 00 00 69 D5 02 06 00 66 00 00 69 E6 02 06 00 66 00 00 69 E6 03 06 00 66 00 00 68 37 03 06 00 66 00 00 68 37 04 06 00 66 00 00 69 80 04 06 00 66 00 00 69 80 01 06 00 56 00 00 69 DA 01 06 00 56 00 00 69 DA 02 06 00 56 00 00 69 E9 02 06 00 56 00 00 69 E9 03 06 00 56 00 00 68 38 03 06 00 56 00 00 68 38 04 06 00 56 00 00 69 8F 04 06 00 56 00 00 69 8F 01 03 00 5F 00 01 B4 18 01 03 02 00 00 B8 44 02 03 00 5F 00 01 B4 2B 02 03 02 00 00 FC 44 03 03 00 5F 00 01 B5 FA 03 03 02 00 00 C1 84 04 03 00 5F 00 01 B4 4D 04 03 02 00 00 74 44 06 03 00 02 00 04 E4 7E 06 03 08 01 00 01 A6 02 EB 01 93 77 D6 05 03 00 00 00 0E C5 8A 05 03 1C 00 00 00 00 00 00 00 00 00 00 00 00 00 00 00 00 00 00 00 00 00 00 00 00 00 00 00 00 1D 67 

[2019-11-04 12:09:00.953]# RECV HEX>
00 06 00 B6 00 01 A8 3D 00 06 00 B6 00 01 A8 3D 01 06 00 66 00 00 69 D5 01 06 00 66 00 00 69 D5 02 06 00 66 00 00 69 E6 02 06 00 66 00 00 69 E6 03 06 00 66 00 00 68 37 03 06 00 66 00 00 68 37 04 06 00 66 00 00 69 80 04 06 00 66 00 00 69 80 01 06 00 56 00 00 69 DA 01 06 00 56 00 00 69 DA 02 06 00 56 00 00 69 E9 02 06 00 56 00 00 69 E9 03 06 00 56 00 00 68 38 03 06 00 56 00 00 68 38 04 06 00 56 00 00 69 8F 04 06 00 56 00 00 69 8F 01 03 00 5F 00 01 B4 18 01 03 02 00 00 B8 44 02 03 00 5F 00 01 B4 2B 02 03 02 00 00 FC 44 03 03 00 5F 00 01 B5 FA 03 03 02 00 00 C1 84 04 03 00 5F 00 01 B4 4D 04 03 02 00 00 74 44 06 03 00 02 00 04 E4 7E 06 03 08 01 06 01 97 03 0D 01 A4 CD CF 

[2019-11-04 12:09:01.031]# RECV HEX>
05 03 00 00 00 0E C5 8A 05 03 1C 00 00 00 00 00 00 00 00 00 00 00 00 00 00 00 00 00 00 00 00 00 00 00 00 00 00 00 00 1D 67 

[2019-11-04 12:09:01.686]# RECV HEX>
00 06 00 B6 00 01 A8 3D 00 06 00 B6 00 01 A8 3D 01 06 00 66 00 00 69 D5 01 06 00 66 00 00 69 D5 02 06 00 66 00 00 69 E6 02 06 00 66 00 00 69 E6 03 06 00 66 00 00 68 37 03 06 00 66 00 00 68 37 04 06 00 66 00 00 69 80 04 06 00 66 00 00 69 80 01 06 00 56 00 00 69 DA 01 06 00 56 00 00 69 DA 02 06 00 56 00 00 69 E9 02 06 00 56 00 00 69 E9 03 06 00 56 00 00 68 38 03 06 00 56 00 00 68 38 04 06 00 56 00 00 69 8F 04 06 00 56 00 00 69 8F 01 03 00 5F 00 01 B4 18 01 03 02 00 00 B8 44 02 03 00 5F 00 01 B4 2B 02 03 02 00 00 FC 44 03 03 00 5F 00 01 B5 FA 03 03 02 00 00 C1 84 04 03 00 5F 00 01 B4 4D 04 03 02 00 00 74 44 06 03 00 02 00 04 E4 7E 06 03 08 00 F2 01 96 02 FF 01 8A A4 1F 05 03 00 00 00 0E C5 8A 05 03 1C 00 00 00 00 00 00 00 00 00 00 00 00 00 00 00 00 00 00 00 00 00 00 00 00 00 00 00 00 1D 67 

[2019-11-04 12:09:01.764]# RECV HEX>
00 06 00 B6 00 01 A8 3D 00 06 00 B6 00 01 A8 09 32 02 32 01 01 A5 55 01 06 00 66 00 00 69 D5 

[2019-11-04 12:09:02.451]# RECV HEX>
01 06 00 66 00 00 69 D5 01 06 00 66 00 00 69 D5 02 06 00 66 00 00 69 E6 02 06 00 66 00 00 69 E6 03 06 00 66 00 00 68 37 03 06 00 66 00 00 68 37 04 06 00 66 00 00 69 80 04 06 00 66 00 00 69 80 01 06 00 56 00 00 69 DA 01 06 00 56 00 00 69 DA 02 06 00 56 00 00 69 E9 02 06 00 56 00 00 69 E9 03 06 00 56 00 00 68 38 03 06 00 56 00 00 68 38 04 06 00 56 00 00 69 8F 04 06 00 56 00 00 69 8F 01 03 00 5F 00 01 B4 18 01 03 02 00 00 B8 44 02 03 00 5F 00 01 B4 2B 02 03 02 00 00 FC 44 03 03 00 5F 00 01 B5 FA 03 03 02 00 00 C1 84 04 03 00 5F 00 01 B4 4D 04 03 02 00 00 74 44 06 03 00 02 00 04 E4 7E 06 03 08 00 FC 01 A4 03 01 01 A5 53 CB 05 03 00 00 00 0E C5 8A 05 03 1C 00 00 00 00 00 00 00 00 00 00 00 00 00 00 00 00 00 00 00 00 00 00 00 00 00 00 00 00 1D 67 

[2019-11-04 12:09:02.544]# RECV HEX>
00 06 00 B6 00 01 A8 3D 00 06 00 B6 00 01 A8 15 64 04 64 01 01 A5 55 20 10 90 16 10 50 AB FF 

[2019-11-04 12:09:02.872]# RECV HEX>
01 06 00 66 00 00 69 D5 01 06 00 66 00 00 69 D5 02 06 00 66 00 00 69 E6 02 06 00 66 00 00 69 E6 03 06 00 66 00 00 68 37 03 06 00 66 00 00 68 37 04 06 00 66 00 00 69 80 04 06 00 66 00 00 69 80 01 06 00 56 00 00 69 DA 01 06 00 56 00 00 69 DA 02 06 00 56 00 00 69 E9 02 06 00 56 00 00 69 E9 03 06 00 56 00 00 68 38 03 06 00 56 00 00 68 38 

[2019-11-04 12:09:03.231]# RECV HEX>
04 06 00 56 00 00 69 8F 04 06 00 56 00 00 69 8F 01 03 00 5F 00 01 B4 18 01 03 02 00 00 B8 44 02 03 00 5F 00 01 B4 2B 02 03 02 00 00 FC 44 03 03 00 5F 00 01 B5 FA 03 03 02 00 00 C1 84 04 03 00 5F 00 01 B4 4D 04 03 02 00 00 74 44 06 03 00 02 00 04 E4 7E 06 03 08 00 F7 01 92 03 05 01 AB E1 0A 05 03 00 00 00 0E C5 8A 05 03 1C 00 00 00 00 00 00 00 00 00 00 00 00 00 00 00 00 00 00 00 00 00 00 00 00 00 00 00 00 1D 67 

[2019-11-04 12:09:03.886]# RECV HEX>
00 06 00 B6 00 01 A8 3D 00 06 00 B6 00 01 A8 3D 01 06 00 66 00 00 69 D5 01 06 00 66 00 00 69 D5 02 06 00 66 00 00 69 E6 02 06 00 66 00 00 69 E6 03 06 00 66 00 00 68 37 03 06 00 66 00 00 68 37 04 06 00 66 00 00 69 80 04 06 00 66 00 00 69 80 01 06 00 56 00 00 69 DA 01 06 00 56 00 00 69 DA 02 06 00 56 00 00 69 E9 02 06 00 56 00 00 69 E9 03 06 00 56 00 00 68 38 03 06 00 56 00 00 68 38 04 06 00 56 00 00 69 8F 04 06 00 56 00 00 69 8F 01 03 00 5F 00 01 B4 18 01 03 02 00 00 B8 44 02 03 00 5F 00 01 B4 2B 02 03 02 00 00 FC 44 03 03 00 5F 00 01 B5 FA 03 03 02 00 00 C1 84 04 03 00 5F 00 01 B4 4D 04 03 02 00 00 74 44 06 03 00 02 00 04 E4 7E 06 03 08 00 E8 01 98 03 1A 01 AB A6 0C 05 03 00 00 00 0E C5 8A 05 03 1C 00 00 00 00 00 00 00 00 00 00 00 00 00 00 00 00 00 00 00 00 00 00 00 00 00 00 00 00 1D 67 

[2019-11-04 12:09:04.229]# RECV HEX>
00 06 00 B6 00 01 A8 3D 00 06 00 B6 00 01 A8 3D 01 06 00 66 00 00 69 D5 01 06 00 66 00 00 69 D5 02 06 00 66 00 00 69 E6 02 06 00 66 00 00 69 E6 03 06 00 66 00 00 68 37 03 06 00 66 00 00 68 37 04 06 00 66 00 00 69 80 04 06 00 66 00 00 69 80 01 06 00 56 00 00 69 DA 01 06 00 56 00 00 69 DA 02 06 00 56 00 00 69 E9 02 06 00 56 00 00 69 E9 03 06 00 56 00 00 68 38 03 06 00 56 00 00 68 38 04 06 00 56 00 00 69 8F 04 06 00 56 00 00 69 8F 

[2019-11-04 12:09:04.354]# RECV HEX>
01 03 00 5F 00 01 B4 18 01 03 02 00 00 B8 44 02 03 00 5F 00 01 B4 2B 02 03 02 00 00 FC 44 03 03 00 5F 00 01 B5 FA 03 03 02 00 00 C1 84 

[2019-11-04 12:09:04.541]# RECV HEX>
04 03 00 5F 00 01 B4 4D 04 03 02 00 00 74 44 06 03 00 02 00 04 E4 7E 06 03 08 01 08 01 A5 03 0C 01 B1 8B C4 05 03 00 00 00 0E C5 8A 05 03 1C 00 00 00 00 00 00 00 00 00 00 00 00 00 00 00 00 00 00 00 00 00 00 00 00 00 00 00 00 1D 67 

[2019-11-04 12:09:04.619]# RECV HEX>
00 06 00 B6 00 01 A8 3D 00 06 00 B6 00 01 A8 15 64 04 64 01 01 A5 55 01 06 00 66 00 00 69 D5 

[2019-11-04 12:09:05.306]# RECV HEX>
01 06 00 66 00 00 69 D5 01 06 00 66 00 00 69 D5 02 06 00 66 00 00 69 E6 02 06 00 66 00 00 69 E6 03 06 00 66 00 00 68 37 03 06 00 66 00 00 68 37 04 06 00 66 00 00 69 80 04 06 00 66 00 00 69 80 01 06 00 56 00 00 69 DA 01 06 00 56 00 00 69 DA 02 06 00 56 00 00 69 E9 02 06 00 56 00 00 69 E9 03 06 00 56 00 00 68 38 03 06 00 56 00 00 68 38 04 06 00 56 00 00 69 8F 04 06 00 56 00 00 69 8F 01 03 00 5F 00 01 B4 18 01 03 02 00 00 B8 44 02 03 00 5F 00 01 B4 2B 02 03 02 00 00 FC 44 03 03 00 5F 00 01 B5 FA 03 03 02 00 00 C1 84 04 03 00 5F 00 01 B4 4D 04 03 02 00 00 74 44 06 03 00 02 00 04 E4 7E 06 03 08 01 02 01 9D 03 04 01 A7 80 0D 05 03 00 00 00 0E C5 8A 05 03 1C 00 00 00 00 00 00 00 00 00 00 00 00 00 00 00 00 00 00 00 00 00 00 00 00 00 00 00 00 1D 67 

[2019-11-04 12:09:05.384]# RECV HEX>
00 06 00 B6 00 01 A8 3D 00 06 00 B6 00 01 A8 05 31 02 32 01 01 A5 55 

[2019-11-04 12:09:06.070]# RECV HEX>
01 06 00 66 00 00 69 D5 01 06 00 66 00 00 69 D5 02 06 00 66 00 00 69 E6 02 06 00 66 00 00 69 E6 03 06 00 66 00 00 68 37 03 06 00 66 00 00 68 37 04 06 00 66 00 00 69 80 04 06 00 66 00 00 69 80 01 06 00 56 00 00 69 DA 01 06 00 56 00 00 69 DA 02 06 00 56 00 00 69 E9 02 06 00 56 00 00 69 E9 03 06 00 56 00 00 68 38 03 06 00 56 00 00 68 38 04 06 00 56 00 00 69 8F 04 06 00 56 00 00 69 8F 01 03 00 5F 00 01 B4 18 01 03 02 00 00 B8 44 02 03 00 5F 00 01 B4 2B 02 03 02 00 00 FC 44 03 03 00 5F 00 01 B5 FA 03 03 02 00 00 C1 84 04 03 00 5F 00 01 B4 4D 04 03 02 00 00 74 44 06 03 00 02 00 04 E4 7E 06 03 08 00 FE 01 A0 03 12 01 9A 30 1E 05 03 00 00 00 0E C5 8A 05 03 1C 00 00 00 00 00 00 00 00 00 00 00 00 00 00 00 00 00 00 00 00 00 00 00 00 00 00 00 00 1D 67 

[2019-11-04 12:09:06.413]# RECV HEX>
00 06 00 B6 00 01 A8 3D 00 06 00 B6 00 01 A8 3D 01 06 00 66 00 00 69 D5 01 06 00 66 00 00 69 D5 02 06 00 66 00 00 69 E6 02 06 00 66 00 00 69 E6 03 06 00 66 00 00 68 37 03 06 00 66 00 00 68 37 04 06 00 66 00 00 69 80 04 06 00 66 00 00 69 80 01 06 00 56 00 00 69 DA 01 06 00 56 00 00 69 DA 02 06 00 56 00 00 69 E9 02 06 00 56 00 00 69 E9 03 06 00 56 00 00 68 38 03 06 00 56 00 00 68 38 04 06 00 56 00 00 69 8F 04 06 00 56 00 00 69 8F 

[2019-11-04 12:09:06.632]# RECV HEX>
01 03 00 5F 00 01 B4 18 01 03 02 00 00 B8 44 02 03 00 5F 00 01 B4 2B 02 03 02 00 00 FC 44 03 03 00 5F 00 01 B5 FA 03 03 02 00 00 C1 84 04 03 00 5F 00 01 B4 4D 04 03 02 00 00 74 44 06 03 00 02 00 04 E4 7E 06 03 08 00 F3 01 B6 02 FD 01 AA 95 00 

[2019-11-04 12:09:06.725]# RECV HEX>
05 03 00 00 00 0E C5 8A 05 03 1C 00 00 00 00 00 00 00 00 00 00 00 00 00 00 00 00 00 00 00 00 00 00 00 00 00 00 00 00 1D 67 

[2019-11-04 12:09:06.803]# RECV HEX>
00 06 00 B6 00 01 A8 3D 00 06 00 B6 00 01 A8 15 64 04 64 01 01 A5 55 01 06 00 66 00 00 69 D5 

[2019-11-04 12:09:07.146]# RECV HEX>
01 06 00 66 00 00 69 D5 01 06 00 66 00 00 69 D5 02 06 00 66 00 00 69 E6 02 06 00 66 00 00 69 E6 03 06 00 66 00 00 68 37 03 06 00 66 00 00 68 37 04 06 00 66 00 00 69 80 04 06 00 66 00 00 69 80 01 06 00 56 00 00 69 DA 01 06 00 56 00 00 69 DA 02 06 00 56 00 00 69 E9 02 06 00 56 00 00 69 E9 03 06 00 56 00 00 68 38 03 06 00 56 00 00 68 38 

[2019-11-04 12:09:07.240]# RECV HEX>
04 06 00 56 00 00 69 8F 04 06 00 56 00 00 69 8F 01 03 00 5F 00 01 B4 18 01 B7 

[2019-11-04 12:09:07.365]# RECV HEX>
01 03 00 5F 00 01 B4 18 

[2019-11-04 12:09:07.490]# RECV HEX>
01 03 00 5F 00 01 B4 18 

[2019-11-04 12:09:07.755]# RECV HEX>
02 03 00 5F 00 01 B4 2B 02 03 02 00 00 FC 44 03 03 00 5F 00 01 B5 FA 03 03 02 00 00 C1 84 04 03 00 5F 00 01 B4 4D 04 03 02 00 00 74 44 06 03 00 02 00 04 E4 7E 06 03 08 00 FD 01 98 03 0C 01 9A C2 DD 

[2019-11-04 12:09:07.833]# RECV HEX>
05 03 00 00 00 0E C5 8A 05 03 1C 00 00 00 00 00 00 00 00 00 00 00 00 00 00 00 00 00 00 00 00 00 00 00 00 00 00 00 00 1D 67 

[2019-11-04 12:09:07.911]# RECV HEX>
00 06 00 B6 00 01 A8 3D 00 06 00 B6 00 01 A8 3D 01 06 00 66 00 00 69 D5 

[2019-11-04 12:09:08.036]# RECV HEX>
01 06 00 66 00 00 69 D5 

[2019-11-04 12:09:08.160]# RECV HEX>
01 06 00 66 00 00 69 D5 

[2019-11-04 12:09:08.394]# RECV HEX>
02 06 00 66 00 00 69 E6 02 06 00 66 00 00 69 E6 03 06 00 66 00 00 68 37 03 06 00 66 00 00 68 37 04 06 00 66 00 00 69 80 04 06 00 66 00 00 69 80 01 06 00 56 00 00 69 DA 

[2019-11-04 12:09:08.519]# RECV HEX>
01 06 00 56 00 00 69 DA 

[2019-11-04 12:09:08.628]# RECV HEX>
01 06 00 56 00 00 69 DA 

[2019-11-04 12:09:08.878]# RECV HEX>
02 06 00 56 00 00 69 E9 02 06 00 56 00 00 69 E9 03 06 00 56 00 00 68 38 03 06 00 56 00 00 68 38 04 06 00 56 00 00 69 8F 04 06 00 56 00 00 69 8F 01 03 00 5F 00 01 B4 18 

[2019-11-04 12:09:09.003]# RECV HEX>
01 03 00 5F 00 01 B4 18 

[2019-11-04 12:09:09.128]# RECV HEX>
01 03 00 5F 00 01 B4 18 

[2019-11-04 12:09:09.486]# RECV HEX>
02 03 00 5F 00 01 B4 2B 02 03 02 00 00 FC 44 03 03 00 5F 00 01 B5 FA 03 03 02 00 00 C1 84 04 03 00 5F 00 01 B4 4D 04 03 02 00 00 74 44 06 03 00 02 00 04 E4 7E 06 03 08 00 F8 01 A1 03 19 01 AA 1A 08 05 03 00 00 00 0E C5 8A 05 03 1C 00 00 00 00 00 00 00 00 00 00 00 00 00 00 00 00 00 00 00 00 00 00 00 00 00 00 00 00 1D 67 

[2019-11-04 12:09:09.564]# RECV HEX>
00 06 00 B6 00 01 A8 3D 00 06 00 B6 00 01 A8 09 32 02 32 01 01 A5 55 

[2019-11-04 12:09:09.689]# RECV HEX>
01 06 00 66 00 00 69 D5 

[2019-11-04 12:09:09.798]# RECV HEX>
01 06 00 66 00 00 69 D5 

[2019-11-04 12:09:10.032]# RECV HEX>
02 06 00 66 00 00 69 E6 02 06 00 66 00 00 69 E6 03 06 00 66 00 00 68 37 03 06 00 66 00 00 68 37 04 06 00 66 00 00 69 80 04 06 00 66 00 00 69 80 01 06 00 56 00 00 69 DA 

[2019-11-04 12:09:10.157]# RECV HEX>
01 06 00 56 00 00 69 DA 

[2019-11-04 12:09:10.282]# RECV HEX>
01 06 00 56 00 00 69 DA 

[2019-11-04 12:09:10.485]# RECV HEX>
02 06 00 56 00 00 69 E9 02 06 00 56 00 00 69 E9 03 06 00 56 00 00 68 38 03 06 00 56 00 00 68 38 04 06 00 56 00 00 69 8F 04 06 00 56 00 00 69 8F 

[2019-11-04 12:09:10.532]# RECV HEX>
01 03 00 5F 00 01 B4 18 

[2019-11-04 12:09:10.656]# RECV HEX>
01 03 00 5F 00 01 B4 18 

[2019-11-04 12:09:10.781]# RECV HEX>
01 03 00 5F 00 01 B4 18 

[2019-11-04 12:09:11.140]# RECV HEX>
02 03 00 5F 00 01 B4 2B 02 03 02 00 00 FC 44 03 03 00 5F 00 01 B5 FA 03 03 02 00 00 C1 84 04 03 00 5F 00 01 B4 4D 04 03 02 00 00 74 44 06 03 00 02 00 04 E4 7E 06 03 08 00 F9 01 AE 03 15 01 B4 1E C2 05 03 00 00 00 0E C5 8A 05 03 1C 00 00 00 00 00 00 00 00 00 00 00 00 00 00 00 00 00 00 00 00 00 00 00 00 00 00 00 00 1D 67 

[2019-11-04 12:09:11.218]# RECV HEX>
00 06 00 B6 00 01 A8 3D 00 06 00 B6 00 01 A8 3D 01 06 00 66 00 00 69 D5 

[2019-11-04 12:09:11.327]# RECV HEX>
01 06 00 66 00 00 69 D5 

[2019-11-04 12:09:11.452]# RECV HEX>
01 06 00 66 00 00 69 D5 

[2019-11-04 12:09:11.686]# RECV HEX>
02 06 00 66 00 00 69 E6 02 06 00 66 00 00 69 E6 03 06 00 66 00 00 68 37 03 06 00 66 00 00 68 37 04 06 00 66 00 00 69 80 04 06 00 66 00 00 69 80 01 06 00 56 00 00 69 DA 

[2019-11-04 12:09:11.811]# RECV HEX>
01 06 00 56 00 00 69 DA 

[2019-11-04 12:09:11.920]# RECV HEX>
01 06 00 56 00 00 69 DA 

[2019-11-04 12:09:12.185]# RECV HEX>
02 06 00 56 00 00 69 E9 02 06 00 56 00 00 69 E9 03 06 00 56 00 00 68 38 03 06 00 56 00 00 68 38 04 06 00 56 00 00 69 8F 04 06 00 56 00 00 69 8F 01 03 00 5F 00 01 B4 18 FE 

[2019-11-04 12:09:12.294]# RECV HEX>
01 03 00 5F 00 01 B4 18 

[2019-11-04 12:09:12.419]# RECV HEX>
01 03 00 5F 00 01 B4 18 

[2019-11-04 12:09:12.638]# RECV HEX>
02 03 00 5F 00 01 B4 2B 02 03 02 00 00 FC 44 03 03 00 5F 00 01 B5 FA 03 03 02 00 00 C1 84 04 03 00 5F 00 01 B4 4D 04 03 02 00 00 74 44 

[2019-11-04 12:09:12.778]# RECV HEX>
06 03 00 02 00 04 E4 7E 06 03 08 01 01 01 AB 02 FE 01 A6 9B 04 05 03 00 00 00 0E C5 8A 05 03 1C 00 00 00 00 00 00 00 00 00 00 00 00 00 00 00 00 00 00 00 00 00 00 00 00 00 00 00 00 1D 67 

[2019-11-04 12:09:12.856]# RECV HEX>
00 06 00 B6 00 01 A8 3D 00 06 00 B6 00 01 A8 3D 01 06 00 66 00 00 69 D5 

[2019-11-04 12:09:12.981]# RECV HEX>
01 06 00 66 00 00 69 D5 

[2019-11-04 12:09:13.106]# RECV HEX>
01 06 00 66 00 00 69 D5 

[2019-11-04 12:09:13.340]# RECV HEX>
02 06 00 66 00 00 69 E6 02 06 00 66 00 00 69 E6 03 06 00 66 00 00 68 37 03 06 00 66 00 00 68 37 04 06 00 66 00 00 69 80 04 06 00 66 00 00 69 80 01 06 00 56 00 00 69 DA FF 

[2019-11-04 12:09:13.464]# RECV HEX>
01 06 00 56 00 00 69 DA EB F7 FC FE 

[2019-11-04 12:09:13.589]# RECV HEX>
01 06 00 56 00 00 69 DA FF 

[2019-11-04 12:09:13.823]# RECV HEX>
02 06 00 56 00 00 69 E9 02 06 00 56 00 00 69 E9 03 06 00 56 00 00 68 38 03 06 00 56 00 00 68 38 04 06 00 56 00 00 69 8F 04 06 00 56 00 00 69 8F 01 03 00 5F 00 01 B4 18 

[2019-11-04 12:09:13.948]# RECV HEX>
01 03 00 5F 00 01 B4 18 

[2019-11-04 12:09:14.073]# RECV HEX>
01 03 00 5F 00 01 B4 18 

[2019-11-04 12:09:14.432]# RECV HEX>
02 03 00 5F 00 01 B4 2B 02 03 02 00 00 FC 44 03 03 00 5F 00 01 B5 FA 03 03 02 00 00 C1 84 04 03 00 5F 00 01 B4 4D 04 03 02 00 00 74 44 06 03 00 02 00 04 E4 7E 06 03 08 00 FF 01 A2 02 FD 01 9A 69 17 05 03 00 00 00 0E C5 8A 05 03 1C 00 00 00 00 00 00 00 00 00 00 00 00 00 00 00 00 00 00 00 00 00 00 00 00 00 00 00 00 1D 67 

[2019-11-04 12:09:14.510]# RECV HEX>
00 06 00 B6 00 01 A8 3D 00 06 00 B6 00 01 A8 3D 01 06 00 66 00 00 69 D5 

[2019-11-04 12:09:14.634]# RECV HEX>
01 06 00 66 00 00 69 D5 

[2019-11-04 12:09:14.744]# RECV HEX>
01 06 00 66 00 00 69 D5 

[2019-11-04 12:09:14.993]# RECV HEX>
02 06 00 66 00 00 69 E6 02 06 00 66 00 00 69 E6 03 06 00 66 00 00 68 37 03 06 00 66 00 00 68 37 04 06 00 66 00 00 69 80 04 06 00 66 00 00 69 80 01 06 00 56 00 00 69 DA 

[2019-11-04 12:09:15.102]# RECV HEX>
01 06 00 56 00 00 69 DA 

[2019-11-04 12:09:15.227]# RECV HEX>
01 06 00 56 00 00 69 DA 

[2019-11-04 12:09:15.477]# RECV HEX>
02 06 00 56 00 00 69 E9 02 06 00 56 00 00 69 E9 03 06 00 56 00 00 68 38 03 06 00 56 00 00 68 38 04 06 00 56 00 00 69 8F 04 06 00 56 00 00 69 8F 01 03 00 5F 00 01 B4 18 

[2019-11-04 12:09:15.602]# RECV HEX>
01 03 00 5F 00 01 B4 18 

[2019-11-04 12:09:15.726]# RECV HEX>
01 03 00 5F 00 01 B4 18 

[2019-11-04 12:09:16.085]# RECV HEX>
02 03 00 5F 00 01 B4 2B 02 03 02 00 00 FC 44 03 03 00 5F 00 01 B5 FA 03 03 02 00 00 C1 84 04 03 00 5F 00 01 B4 4D 04 03 02 00 00 74 44 06 03 00 02 00 04 E4 7E 06 03 08 00 F6 01 A5 03 13 01 93 E4 18 05 03 00 00 00 0E C5 8A 05 03 1C 00 00 00 00 00 00 00 00 00 00 00 00 00 00 00 00 00 00 00 00 00 00 00 00 00 00 00 00 1D 67 

[2019-11-04 12:09:16.148]# RECV HEX>
00 06 00 B6 00 01 A8 3D 00 06 00 B6 00 01 A8 09 60 04 64 01 01 A5 55 

[2019-11-04 12:09:16.272]# RECV HEX>
01 06 00 66 00 00 69 D5 

[2019-11-04 12:09:16.397]# RECV HEX>
01 06 00 66 00 00 69 D5 

[2019-11-04 12:09:16.631]# RECV HEX>
02 06 00 66 00 00 69 E6 02 06 00 66 00 00 69 E6 03 06 00 66 00 00 68 37 03 06 00 66 00 00 68 37 04 06 00 66 00 00 69 80 04 06 00 66 00 00 69 80 01 06 00 56 00 00 69 DA 

[2019-11-04 12:09:16.740]# RECV HEX>
01 06 00 56 00 00 69 DA 

[2019-11-04 12:09:16.865]# RECV HEX>
01 06 00 56 00 00 69 DA 

[2019-11-04 12:09:17.115]# RECV HEX>
02 06 00 56 00 00 69 E9 02 06 00 56 00 00 69 E9 03 06 00 56 00 00 68 38 03 06 00 56 00 00 68 38 04 06 00 56 00 00 69 8F 04 06 00 56 00 00 69 8F 01 03 00 5F 00 01 B4 18 

[2019-11-04 12:09:17.240]# RECV HEX>
01 03 00 5F 00 01 B4 18 

[2019-11-04 12:09:17.364]# RECV HEX>
01 03 00 5F 00 01 B4 18 

[2019-11-04 12:09:17.583]# RECV HEX>
02 03 00 5F 00 01 B4 2B 02 03 02 00 00 FC 44 03 03 00 5F 00 01 B5 FA 03 03 02 00 00 C1 84 04 03 00 5F 00 01 B4 4D 04 03 02 00 00 74 44 

[2019-11-04 12:09:17.723]# RECV HEX>
06 03 00 02 00 04 E4 7E 06 03 08 00 F3 01 B2 03 0C 01 A7 F5 0A 05 03 00 00 00 0E C5 8A 05 03 1C 00 00 00 00 00 00 00 00 00 00 00 00 00 00 00 00 00 00 00 00 00 00 00 00 00 00 00 00 1D 67 

[2019-11-04 12:09:17.801]# RECV HEX>
00 06 00 B6 00 01 A8 3D 00 06 00 B6 00 01 A8 3D 01 06 00 66 00 00 69 D5 

[2019-11-04 12:09:17.926]# RECV HEX>
01 06 00 66 00 00 69 D5 

[2019-11-04 12:09:18.051]# RECV HEX>
01 06 00 66 00 00 69 D5 FC 

[2019-11-04 12:09:18.285]# RECV HEX>
02 06 00 66 00 00 69 E6 02 06 00 66 00 00 69 E6 03 06 00 66 00 00 68 37 03 06 00 66 00 00 68 37 04 06 00 66 00 00 69 80 04 06 00 66 00 00 69 80 01 06 00 56 00 00 69 DA 

[2019-11-04 12:09:18.394]# RECV HEX>
01 06 00 56 00 00 69 DA 

[2019-11-04 12:09:18.519]# RECV HEX>
01 06 00 56 00 00 69 DA 

[2019-11-04 12:09:18.768]# RECV HEX>
02 06 00 56 00 00 69 E9 02 06 00 56 00 00 69 E9 03 06 00 56 00 00 68 38 03 06 00 56 00 00 68 38 04 06 00 56 00 00 69 8F 04 06 00 56 00 00 69 8F 01 03 00 5F 00 01 B4 18 

[2019-11-04 12:09:18.893]# RECV HEX>
01 03 00 5F 00 01 B4 18 

[2019-11-04 12:09:19.018]# RECV HEX>
01 03 00 5F 00 01 B4 18 

[2019-11-04 12:09:19.377]# RECV HEX>
02 03 00 5F 00 01 B4 2B 02 03 02 00 00 FC 44 03 03 00 5F 00 01 B5 FA 03 03 02 00 00 C1 84 04 03 00 5F 00 01 B4 4D 04 03 02 00 00 74 44 06 03 00 02 00 04 E4 7E 06 03 08 00 FC 01 9F 03 19 01 AA 76 0D 05 03 00 00 00 0E C5 8A 05 03 1C 00 93 00 0C 00 FF 00 51 00 88 00 08 00 FF 00 FF 00 FF 00 FF 00 FF 00 FF 00 FF 00 FF 1D 20 

[2019-11-04 12:09:19.439]# RECV HEX>
00 06 00 B6 00 01 A8 3D 00 06 00 B6 00 01 A8 3D 01 06 00 66 00 00 69 D5 

[2019-11-04 12:09:19.564]# RECV HEX>
01 06 00 66 00 00 69 D5 

[2019-11-04 12:09:19.689]# RECV HEX>
01 06 00 66 00 00 69 D5 

[2019-11-04 12:09:19.938]# RECV HEX>
02 06 00 66 00 00 69 E6 02 06 00 66 00 00 69 E6 03 06 00 66 00 00 68 37 03 06 00 66 00 00 68 37 04 06 00 66 00 00 69 80 04 06 00 66 00 00 69 80 01 06 00 56 00 00 69 DA 

[2019-11-04 12:09:20.048]# RECV HEX>
01 06 00 56 00 00 69 DA 

[2019-11-04 12:09:20.172]# RECV HEX>
01 06 00 56 00 00 69 DA 

[2019-11-04 12:09:20.422]# RECV HEX>
02 06 00 56 00 00 69 E9 02 06 00 56 00 00 69 E9 03 06 00 56 00 00 68 38 03 06 00 56 00 00 68 38 04 06 00 56 00 00 69 8F 04 06 00 56 00 00 69 8F 01 03 00 5F 00 01 B4 18 

[2019-11-04 12:09:20.547]# RECV HEX>
01 03 00 5F 00 01 B4 18 

[2019-11-04 12:09:20.672]# RECV HEX>
01 03 00 5F 00 01 B4 18 

[2019-11-04 12:09:21.030]# RECV HEX>
02 03 00 5F 00 01 B4 2B 02 03 02 00 00 FC 44 03 03 00 5F 00 01 B5 FA 03 03 02 00 00 C1 84 04 03 00 5F 00 01 B4 4D 04 03 02 00 00 74 44 06 03 00 02 00 04 E4 7E 06 03 08 00 F4 01 B3 03 22 01 B8 9F CB 05 03 00 00 00 0E C5 8A 05 03 1C 00 BF 00 0C 00 FF 00 51 00 88 00 08 00 00 00 80 00 00 00 80 00 C1 00 FF 00 FF 00 28 7F 24 

[2019-11-04 12:09:21.108]# RECV HEX>
00 06 00 B6 00 01 A8 3D 00 06 00 B6 00 01 A8 3D 01 06 00 66 00 00 69 D5 E0 

[2019-11-04 12:09:21.233]# RECV HEX>
01 06 00 66 00 00 69 D5 

[2019-11-04 12:09:21.342]# RECV HEX>
01 06 00 66 00 00 69 D5 

[2019-11-04 12:09:21.592]# RECV HEX>
02 06 00 66 00 00 69 E6 02 06 00 66 00 00 69 E6 03 06 00 66 00 00 68 37 03 06 00 66 00 00 68 37 04 06 00 66 00 00 69 80 04 06 00 66 00 00 69 80 01 06 00 56 00 00 69 DA 

[2019-11-04 12:09:21.717]# RECV HEX>
01 06 00 56 00 00 69 DA 

[2019-11-04 12:09:21.842]# RECV HEX>
01 06 00 56 00 00 69 DA C0 

[2019-11-04 12:09:21.966]# RECV HEX>
02 06 00 56 00 00 69 E9 02 06 00 56 00 00 69 E9 

[2019-11-04 12:09:22.091]# RECV HEX>
03 06 00 56 00 00 68 38 03 06 00 56 00 00 68 38 04 06 00 56 00 00 69 8F 04 06 00 56 00 00 69 8F 01 03 00 5F 00 01 B4 18 

[2019-11-04 12:09:22.216]# RECV HEX>
01 03 00 5F 00 01 B4 18 

[2019-11-04 12:09:22.341]# RECV HEX>
01 03 00 5F 00 01 B4 18 

[2019-11-04 12:09:22.700]# RECV HEX>
02 03 00 5F 00 01 B4 2B 02 03 02 00 00 FC 44 03 03 00 5F 00 01 B5 FA 03 03 02 00 00 C1 84 04 03 00 5F 00 01 B4 4D 04 03 02 00 00 74 44 06 03 00 02 00 04 E4 7E 06 03 08 00 FC 01 92 03 00 01 AD CB C9 05 03 00 00 00 0E C5 8A 05 03 1C 00 BF 00 0C 00 FF 00 51 00 88 00 08 00 00 00 80 00 00 00 80 00 C1 00 FF 00 FF 00 26 FE E0 

[2019-11-04 12:09:22.762]# RECV HEX>
00 06 00 B6 00 01 A8 3D 00 06 00 B6 00 01 A8 3D 01 06 00 66 00 00 69 D5 

[2019-11-04 12:09:22.887]# RECV HEX>
01 06 00 66 00 00 69 D5 

[2019-11-04 12:09:23.012]# RECV HEX>
01 06 00 66 00 00 69 D5 

[2019-11-04 12:09:23.246]# RECV HEX>
02 06 00 66 00 00 69 E6 02 06 00 66 00 00 69 E6 03 06 00 66 00 00 68 37 03 06 00 66 00 00 68 37 04 06 00 66 00 00 69 80 04 06 00 66 00 00 69 80 01 06 00 56 00 00 69 DA 

[2019-11-04 12:09:23.386]# RECV HEX>
01 06 00 56 00 00 69 DA FE 

[2019-11-04 12:09:23.511]# RECV HEX>
01 06 00 56 00 00 69 DA 88 78 15 FF 

[2019-11-04 12:09:23.760]# RECV HEX>
02 06 00 56 00 00 69 E9 02 06 00 56 00 00 69 E9 03 06 00 56 00 00 68 38 03 06 00 56 00 00 68 38 04 06 00 56 00 00 69 8F 04 06 00 56 00 00 69 8F 01 03 00 5F 00 01 B4 18 B6 37 7E E2 

[2019-11-04 12:09:23.885]# RECV HEX>
01 03 00 5F 00 01 B4 18 B7 

[2019-11-04 12:09:23.994]# RECV HEX>
01 03 00 5F 00 01 B4 18 

[2019-11-04 12:09:24.353]# RECV HEX>
02 03 00 5F 00 01 B4 2B 02 03 02 00 00 FC 44 03 03 00 5F 00 01 B5 FA 03 03 02 00 00 C1 84 04 03 00 5F 00 01 B4 4D 04 03 02 00 00 74 44 06 03 00 02 00 04 E4 7E 06 03 08 00 F6 01 BA 03 01 01 98 90 18 05 03 00 00 00 0E C5 8A 05 03 1C 00 BF 00 0C 00 FF 00 51 00 88 00 08 00 00 00 80 00 00 00 80 00 C1 00 FF 00 FF 00 28 7F 24 

[2019-11-04 12:09:24.431]# RECV HEX>
00 06 00 B6 00 01 A8 3D 00 06 00 B6 00 01 A8 3D 01 06 00 66 00 00 69 D5 

[2019-11-04 12:09:24.556]# RECV HEX>
01 06 00 66 00 00 69 D5 

[2019-11-04 12:09:24.665]# RECV HEX>
01 06 00 66 00 00 69 D5 

[2019-11-04 12:09:24.915]# RECV HEX>
02 06 00 66 00 00 69 E6 02 06 00 66 00 00 69 E6 03 06 00 66 00 00 68 37 03 06 00 66 00 00 68 37 04 06 00 66 00 00 69 80 04 06 00 66 00 00 69 80 01 06 00 56 00 00 69 DA 

[2019-11-04 12:09:25.024]# RECV HEX>
01 06 00 56 00 00 69 DA 

[2019-11-04 12:09:25.149]# RECV HEX>
01 06 00 56 00 00 69 DA 

[2019-11-04 12:09:25.414]# RECV HEX>
02 06 00 56 00 00 69 E9 02 06 00 56 00 00 69 E9 03 06 00 56 00 00 68 38 03 06 00 56 00 00 68 38 04 06 00 56 00 00 69 8F 04 06 00 56 00 00 69 8F 01 03 00 5F 00 01 B4 18 00 00 B8 44 

[2019-11-04 12:09:25.539]# RECV HEX>
01 03 00 5F 00 01 B4 18 01 03 02 00 00 B8 44 

[2019-11-04 12:09:25.804]# RECV HEX>
02 03 00 5F 00 01 B4 2B 02 03 02 00 00 FC 44 03 03 00 5F 00 01 B5 FA 03 03 02 00 00 C1 84 04 03 00 5F 00 01 B4 4D 04 03 02 00 00 74 44 06 03 00 02 00 04 E4 7E 06 03 08 00 FD 01 AA 03 04 01 BC FB 01 05 03 00 00 00 0E C5 8A 05 03 1C 00 BF 00 0C 00 FF 00 51 00 88 00 08 00 00 00 80 00 00 00 80 00 C1 00 FF 00 FF 00 28 7F 24 

[2019-11-04 12:09:25.882]# RECV HEX>
00 06 00 B6 00 01 A8 3D 00 06 00 B6 00 01 A8 3D 01 06 00 66 00 00 69 D5 01 06 00 F7 E8 EB 

[2019-11-04 12:09:26.022]# RECV HEX>
01 06 00 66 00 00 69 D5 C0 7E C0 FD 

[2019-11-04 12:09:26.147]# RECV HEX>
01 06 00 66 00 00 69 D5 03 93 F4 C2 40 BF FD 

[2019-11-04 12:09:26.381]# RECV HEX>
02 06 00 66 00 00 69 E6 02 06 00 66 00 00 69 E6 03 06 00 66 00 00 68 37 03 06 00 66 00 00 68 37 04 06 00 66 00 00 69 80 04 06 00 66 00 00 69 80 01 06 00 56 00 00 69 DA 40 08 C8 01 01 6B DA 

[2019-11-04 12:09:26.974]# RECV HEX>
01 06 00 56 00 00 69 DA 01 06 00 56 00 00 69 DA 02 06 00 56 00 00 69 E9 02 06 00 56 00 00 69 E9 03 06 00 56 00 00 68 38 03 06 00 56 00 00 68 38 04 06 00 56 00 00 69 8F 04 06 00 56 00 00 69 8F 01 03 00 5F 00 01 B4 18 01 03 02 00 00 6E D1 01 03 00 5F 00 01 B4 18 01 03 02 00 00 B8 44 02 03 00 5F 00 01 B4 2B 02 03 02 00 00 FC 44 03 03 00 5F 00 01 B5 FA 03 03 02 00 00 C1 84 04 03 00 5F 00 01 B4 4D 04 03 02 00 00 74 44 06 03 00 02 00 04 E4 7E 06 03 08 00 FD 01 AB 03 1C 01 B1 87 03 05 03 00 00 00 0E C5 8A 05 03 1C 00 BF 00 0C 00 FF 00 51 00 88 00 08 00 00 00 80 00 00 00 80 00 C1 00 FF 00 FF 00 28 7F 24 

[2019-11-04 12:09:27.208]# RECV HEX>
00 06 00 B6 00 01 A8 3D 00 06 00 B6 00 01 A8 3D 01 06 00 66 00 00 69 D5 01 06 00 66 00 00 69 D5 02 06 00 66 00 00 69 E6 02 06 00 66 00 00 69 E6 03 06 00 66 00 00 68 37 03 06 00 66 00 00 68 37 04 06 00 66 00 00 69 80 04 06 00 66 00 00 69 80 01 06 00 56 00 00 69 DA 01 06 

[2019-11-04 12:09:27.333]# RECV HEX>
01 06 00 56 00 00 69 DA 

[2019-11-04 12:09:27.442]# RECV HEX>
01 06 00 56 00 00 69 DA 

[2019-11-04 12:09:27.692]# RECV HEX>
02 06 00 56 00 00 69 E9 02 06 00 56 00 00 69 E9 03 06 00 56 00 00 68 38 03 06 00 56 00 00 68 38 04 06 00 56 00 00 69 8F 04 06 00 56 00 00 69 8F 01 03 00 5F 00 01 B4 18 

[2019-11-04 12:09:27.832]# RECV HEX>
01 03 00 5F 00 01 B4 18 

[2019-11-04 12:09:27.957]# RECV HEX>
01 03 00 5F 00 01 B4 18 

[2019-11-04 12:09:28.082]# RECV HEX>
02 03 00 5F 00 01 B4 2B 02 03 02 00 00 FC 44 

[2019-11-04 12:09:28.300]# RECV HEX>
03 03 00 5F 00 01 B5 FA 03 03 02 00 00 C1 84 04 03 00 5F 00 01 B4 4D 04 03 02 00 00 74 44 06 03 00 02 00 04 E4 7E 06 03 08 00 FA 01 C9 03 0A 01 9D E8 12 05 03 00 00 00 0E C5 8A 05 03 1C 00 BF 00 0C 00 FF 00 51 00 88 00 08 00 00 00 80 00 00 00 80 00 C1 00 FF 00 FF 00 27 3F 20 

[2019-11-04 12:09:28.378]# RECV HEX>
00 06 00 B6 00 01 A8 3D 00 06 00 B6 00 01 A8 3D 01 06 00 66 00 00 69 D5 

[2019-11-04 12:09:28.503]# RECV HEX>
01 06 00 66 00 00 69 D5 

[2019-11-04 12:09:28.628]# RECV HEX>
01 06 00 66 00 00 69 D5 FF 

[2019-11-04 12:09:28.862]# RECV HEX>
02 06 00 66 00 00 69 E6 02 06 00 66 00 00 69 E6 03 06 00 66 00 00 68 37 03 06 00 66 00 00 68 37 04 06 00 66 00 00 69 80 04 06 00 66 00 00 69 80 01 06 00 56 00 00 69 DA 

[2019-11-04 12:09:28.986]# RECV HEX>
01 06 00 56 00 00 69 DA 

[2019-11-04 12:09:29.111]# RECV HEX>
01 06 00 56 00 00 69 DA 

[2019-11-04 12:09:29.236]# RECV HEX>
02 06 00 56 00 00 69 E9 02 06 00 56 00 00 69 E9 

[2019-11-04 12:09:29.361]# RECV HEX>
03 06 00 56 00 00 68 38 03 06 00 56 00 00 68 38 04 06 00 56 00 00 69 8F 04 06 00 56 00 00 69 8F 01 03 00 5F 00 01 B4 18 

[2019-11-04 12:09:29.486]# RECV HEX>
01 03 00 5F 00 01 B4 18 

[2019-11-04 12:09:29.610]# RECV HEX>
01 03 00 5F 00 01 B4 18 

[2019-11-04 12:09:29.969]# RECV HEX>
02 03 00 5F 00 01 B4 2B 02 03 02 00 00 FC 44 03 03 00 5F 00 01 B5 FA 03 03 02 00 00 C1 84 04 03 00 5F 00 01 B4 4D 04 03 02 00 00 74 44 06 03 00 02 00 04 E4 7E 06 03 08 00 FC 01 A3 03 02 01 AA 56 0F 05 03 00 00 00 0E C5 8A 05 03 1C 00 BF 00 0C 00 FF 00 51 00 88 00 08 00 00 00 80 00 00 00 80 00 C1 00 FF 00 FF 00 28 7F 24 

[2019-11-04 12:09:30.032]# RECV HEX>
00 06 00 B6 00 01 A8 3D 00 06 00 B6 00 01 A8 3D 01 06 00 66 00 00 69 D5 

[2019-11-04 12:09:30.156]# RECV HEX>
01 06 00 66 00 00 69 D5 

[2019-11-04 12:09:30.281]# RECV HEX>
01 06 00 66 00 00 69 D5 

[2019-11-04 12:09:30.515]# RECV HEX>
02 06 00 66 00 00 69 E6 02 06 00 66 00 00 69 E6 03 06 00 66 00 00 68 37 03 06 00 66 00 00 68 37 04 06 00 66 00 00 69 80 04 06 00 66 00 00 69 80 01 06 00 56 00 00 69 DA 

[2019-11-04 12:09:30.640]# RECV HEX>
01 06 00 56 00 00 69 DA 

[2019-11-04 12:09:30.780]# RECV HEX>
01 06 00 56 00 00 69 DA FC 

[2019-11-04 12:09:31.014]# RECV HEX>
02 06 00 56 00 00 69 E9 02 06 00 56 00 00 69 E9 03 06 00 56 00 00 68 38 03 06 00 56 00 00 68 38 04 06 00 56 00 00 69 8F 04 06 00 56 00 00 69 8F 01 03 00 5F 00 01 B4 18 

[2019-11-04 12:09:31.139]# RECV HEX>
01 03 00 5F 00 01 B4 18 

[2019-11-04 12:09:31.264]# RECV HEX>
01 03 00 5F 00 01 B4 18 

[2019-11-04 12:09:31.623]# RECV HEX>
02 03 00 5F 00 01 B4 2B 02 03 02 00 00 FC 44 03 03 00 5F 00 01 B5 FA 03 03 02 00 00 C1 84 04 03 00 5F 00 01 B4 4D 04 03 02 00 00 74 44 06 03 00 02 00 04 E4 7E 06 03 08 00 FF 01 AE 03 07 01 A4 D9 0B 05 03 00 00 00 0E C5 8A 05 03 1C 00 BF 00 0C 00 FF 00 51 00 88 00 08 00 00 00 80 00 00 00 80 00 C1 00 FF 00 FF 00 28 7F 24 

[2019-11-04 12:09:31.701]# RECV HEX>
00 06 00 B6 00 01 A8 3D 00 06 00 B6 00 01 A8 3D 01 06 00 66 00 00 69 D5 

[2019-11-04 12:09:31.826]# RECV HEX>
01 06 00 66 00 00 69 D5 

[2019-11-04 12:09:31.935]# RECV HEX>
01 06 00 66 00 00 69 D5 

[2019-11-04 12:09:32.169]# RECV HEX>
02 06 00 66 00 00 69 E6 02 06 00 66 00 00 69 E6 03 06 00 66 00 00 68 37 03 06 00 66 00 00 68 37 04 06 00 66 00 00 69 80 04 06 00 66 00 00 69 80 01 06 00 56 00 00 69 DA 

[2019-11-04 12:09:32.294]# RECV HEX>
01 06 00 56 00 00 69 DA 

[2019-11-04 12:09:32.418]# RECV HEX>
01 06 00 56 00 00 69 DA 

[2019-11-04 12:09:32.668]# RECV HEX>
02 06 00 56 00 00 69 E9 02 06 00 56 00 00 69 E9 03 06 00 56 00 00 68 38 03 06 00 56 00 00 68 38 04 06 00 56 00 00 69 8F 04 06 00 56 00 00 69 8F 01 03 00 5F 00 01 B4 18 

[2019-11-04 12:09:32.793]# RECV HEX>
01 03 00 5F 00 01 B4 18 

[2019-11-04 12:09:32.918]# RECV HEX>
01 03 00 5F 00 01 B4 18 

[2019-11-04 12:09:33.276]# RECV HEX>
02 03 00 5F 00 01 B4 2B 02 03 02 00 00 FC 44 03 03 00 5F 00 01 B5 FA 03 03 02 00 00 C1 84 04 03 00 5F 00 01 B4 4D 04 03 02 00 00 74 44 06 03 00 02 00 04 E4 7E 06 03 08 01 04 01 BA 03 12 01 AC 72 09 05 03 00 00 00 0E C5 8A 05 03 1C 00 BF 00 0C 00 FF 00 51 00 88 00 08 00 00 00 80 00 00 00 80 00 C1 00 FF 00 FF 00 27 3F 20 

[2019-11-04 12:09:33.354]# RECV HEX>
00 06 00 B6 00 01 A8 3D 00 06 00 B6 00 01 A8 3D 01 06 00 66 00 00 69 D5 

[2019-11-04 12:09:33.479]# RECV HEX>
01 06 00 66 00 00 69 D5 

[2019-11-04 12:09:33.588]# RECV HEX>
01 06 00 66 00 00 69 D5 

[2019-11-04 12:09:33.838]# RECV HEX>
02 06 00 66 00 00 69 E6 02 06 00 66 00 00 69 E6 03 06 00 66 00 00 68 37 03 06 00 66 00 00 68 37 04 06 00 66 00 00 69 80 04 06 00 66 00 00 69 80 01 06 00 56 00 00 69 DA 

[2019-11-04 12:09:33.947]# RECV HEX>
01 06 00 56 00 00 69 DA 

[2019-11-04 12:09:34.072]# RECV HEX>
01 06 00 56 00 00 69 DA 

[2019-11-04 12:09:34.322]# RECV HEX>
02 06 00 56 00 00 69 E9 02 06 00 56 00 00 69 E9 03 06 00 56 00 00 68 38 03 06 00 56 00 00 68 38 04 06 00 56 00 00 69 8F 04 06 00 56 00 00 69 8F 01 03 00 5F 00 01 B4 18 

[2019-11-04 12:09:34.446]# RECV HEX>
01 03 00 5F 00 01 B4 18 

[2019-11-04 12:09:34.571]# RECV HEX>
01 03 00 5F 00 01 B4 18 

[2019-11-04 12:09:34.930]# RECV HEX>
02 03 00 5F 00 01 B4 2B 02 03 02 00 00 FC 44 03 03 00 5F 00 01 B5 FA 03 03 02 00 00 C1 84 04 03 00 5F 00 01 B4 4D 04 03 02 00 00 74 44 06 03 00 02 00 04 E4 7E 06 03 08 00 F7 01 A7 03 07 01 B7 CD 07 05 03 00 00 00 0E C5 8A 05 03 1C 00 BF 00 0C 00 FF 00 51 00 88 00 08 00 00 00 80 00 00 00 80 00 C1 00 FF 00 FF 00 28 7F 24 

[2019-11-04 12:09:35.008]# RECV HEX>
00 06 00 B6 00 01 A8 3D 00 06 00 B6 00 01 A8 3D 01 06 00 66 00 00 69 D5 

[2019-11-04 12:09:35.133]# RECV HEX>
01 06 00 66 00 00 69 D5 

[2019-11-04 12:09:35.258]# RECV HEX>
01 06 00 66 00 00 69 D5 

[2019-11-04 12:09:35.492]# RECV HEX>
02 06 00 66 00 00 69 E6 02 06 00 66 00 00 69 E6 03 06 00 66 00 00 68 37 03 06 00 66 00 00 68 37 04 06 00 66 00 00 69 80 04 06 00 66 00 00 69 80 01 06 00 56 00 00 69 DA 

[2019-11-04 12:09:35.616]# RECV HEX>
01 06 00 56 00 00 69 DA 

[2019-11-04 12:09:35.741]# RECV HEX>
01 06 00 56 00 00 69 DA 

[2019-11-04 12:09:35.866]# RECV HEX>
02 06 00 56 00 00 69 E9 02 06 00 56 00 00 69 E9 

[2019-11-04 12:09:35.991]# RECV HEX>
03 06 00 56 00 00 68 38 03 06 00 56 00 00 68 38 04 06 00 56 00 00 69 8F 04 06 00 56 00 00 69 8F 01 03 00 5F 00 01 B4 18 

[2019-11-04 12:09:36.116]# RECV HEX>
01 03 00 5F 00 01 B4 18 

[2019-11-04 12:09:36.240]# RECV HEX>
01 03 00 5F 00 01 B4 18 

[2019-11-04 12:09:36.428]# RECV HEX>
02 03 00 5F 00 01 B4 2B 02 03 02 00 00 FC 44 03 03 00 5F 00 01 B5 FA 03 03 02 00 00 C1 84 

[2019-11-04 12:09:36.521]# RECV HEX>
04 03 00 5F 00 01 B4 4D 04 03 02 00 00 74 44 06 03 00 02 00 04 E4 7E 06 03 08 00 F8 01 B7 02 F8 01 BB C2 0D 

[2019-11-04 12:09:36.599]# RECV HEX>
05 03 00 00 00 0E C5 8A 05 03 1C 00 BF 00 0C 00 FF 00 51 00 88 00 08 00 00 00 80 00 00 00 80 00 C1 00 FF 00 FF 00 28 7F 24 

[2019-11-04 12:09:36.677]# RECV HEX>
00 06 00 B6 00 01 A8 3D 00 06 00 B6 00 01 A8 3D 01 06 00 66 00 00 69 D5 

[2019-11-04 12:09:36.802]# RECV HEX>
01 06 00 66 00 00 69 D5 

[2019-11-04 12:09:36.911]# RECV HEX>
01 06 00 66 00 00 69 D5 

[2019-11-04 12:09:37.161]# RECV HEX>
02 06 00 66 00 00 69 E6 02 06 00 66 00 00 69 E6 03 06 00 66 00 00 68 37 03 06 00 66 00 00 68 37 04 06 00 66 00 00 69 80 04 06 00 66 00 00 69 80 01 06 00 56 00 00 69 DA 

[2019-11-04 12:09:37.286]# RECV HEX>
01 06 00 56 00 00 69 DA 

[2019-11-04 12:09:37.410]# RECV HEX>
01 06 00 56 00 00 69 DA 

[2019-11-04 12:09:37.535]# RECV HEX>
02 06 00 56 00 00 69 E9 02 06 00 56 00 00 69 E9 

[2019-11-04 12:09:37.660]# RECV HEX>
03 06 00 56 00 00 68 38 03 06 00 56 00 00 68 38 04 06 00 56 00 00 69 8F 04 06 00 56 00 00 69 8F 01 03 00 5F 00 01 B4 18 

[2019-11-04 12:09:37.785]# RECV HEX>
01 03 00 5F 00 01 B4 18 

[2019-11-04 12:09:37.910]# RECV HEX>
01 03 00 5F 00 01 B4 18 

[2019-11-04 12:09:38.175]# RECV HEX>
02 03 00 5F 00 01 B4 2B 02 03 02 00 00 FC 44 03 03 00 5F 00 01 B5 FA 03 03 02 00 00 C1 84 04 03 00 5F 00 01 B4 4D 04 03 02 00 00 74 44 06 03 00 02 00 04 E4 7E 06 03 08 00 ED 01 B3 03 0C 01 B7 37 07 

[2019-11-04 12:09:38.253]# RECV HEX>
05 03 00 00 00 0E C5 8A 05 03 1C 00 BF 00 0C 00 FF 00 51 00 88 00 08 00 00 00 80 00 00 00 80 00 C1 00 FF 00 FF 00 28 7F 24 

[2019-11-04 12:09:38.331]# RECV HEX>
00 06 00 B6 00 01 A8 3D 00 06 00 B6 00 01 A8 3D 01 06 00 66 00 00 69 D5 

[2019-11-04 12:09:38.456]# RECV HEX>
01 06 00 66 00 00 69 D5 

[2019-11-04 12:09:38.565]# RECV HEX>
01 06 00 66 00 00 69 D5 

[2019-11-04 12:09:38.814]# RECV HEX>
02 06 00 66 00 00 69 E6 02 06 00 66 00 00 69 E6 03 06 00 66 00 00 68 37 03 06 00 66 00 00 68 37 04 06 00 66 00 00 69 80 04 06 00 66 00 00 69 80 01 06 00 56 00 00 69 DA 

[2019-11-04 12:09:38.939]# RECV HEX>
01 06 00 56 00 00 69 DA 

[2019-11-04 12:09:39.064]# RECV HEX>
01 06 00 56 00 00 69 DA 

[2019-11-04 12:09:39.189]# RECV HEX>
02 06 00 56 00 00 69 E9 02 06 00 56 00 00 69 E9 

[2019-11-04 12:09:39.314]# RECV HEX>
03 06 00 56 00 00 68 38 03 06 00 56 00 00 68 38 04 06 00 56 00 00 69 8F 04 06 00 56 00 00 69 8F 01 03 00 5F 00 01 B4 18 

[2019-11-04 12:09:39.438]# RECV HEX>
01 03 00 5F 00 01 B4 18 

[2019-11-04 12:09:39.563]# RECV HEX>
01 03 00 5F 00 01 B4 18 

[2019-11-04 12:09:39.828]# RECV HEX>
02 03 00 5F 00 01 B4 2B 02 03 02 00 00 FC 44 03 03 00 5F 00 01 B5 FA 03 03 02 00 00 C1 84 04 03 00 5F 00 01 B4 4D 04 03 02 00 00 74 44 06 03 00 02 00 04 E4 7E 06 03 08 01 06 01 A9 03 0C 01 A1 75 C9 

[2019-11-04 12:09:39.906]# RECV HEX>
05 03 00 00 00 0E C5 8A 05 03 1C 00 BF 00 0C 00 FF 00 51 00 88 00 08 00 00 00 80 00 00 00 80 00 C1 00 FF 00 FF 00 28 7F 24 

[2019-11-04 12:09:39.984]# RECV HEX>
00 06 00 B6 00 01 A8 3D 00 06 00 B6 00 01 A8 3D 01 06 00 66 00 00 69 D5 

[2019-11-04 12:09:40.109]# RECV HEX>
01 06 00 66 00 00 69 D5 

[2019-11-04 12:09:40.234]# RECV HEX>
01 06 00 66 00 00 69 D5 

[2019-11-04 12:09:40.468]# RECV HEX>
02 06 00 66 00 00 69 E6 02 06 00 66 00 00 69 E6 03 06 00 66 00 00 68 37 03 06 00 66 00 00 68 37 04 06 00 66 00 00 69 80 04 06 00 66 00 00 69 80 01 06 00 56 00 00 69 DA 

[2019-11-04 12:09:40.593]# RECV HEX>
01 06 00 56 00 00 69 DA 

[2019-11-04 12:09:40.718]# RECV HEX>
01 06 00 56 00 00 69 DA 

[2019-11-04 12:09:40.967]# RECV HEX>
02 06 00 56 00 00 69 E9 02 06 00 56 00 00 69 E9 03 06 00 56 00 00 68 38 03 06 00 56 00 00 68 38 04 06 00 56 00 00 69 8F 04 06 00 56 00 00 69 8F 01 03 00 5F 00 01 B4 18 

[2019-11-04 12:09:41.092]# RECV HEX>
01 03 00 5F 00 01 B4 18 

[2019-11-04 12:09:41.217]# RECV HEX>
01 03 00 5F 00 01 B4 18 

[2019-11-04 12:09:41.576]# RECV HEX>
02 03 00 5F 00 01 B4 2B 02 03 02 00 00 FC 44 03 03 00 5F 00 01 B5 FA 03 03 02 00 00 C1 84 04 03 00 5F 00 01 B4 4D 04 03 02 00 00 74 44 06 03 00 02 00 04 E4 7E 06 03 08 00 FE 01 BC 03 04 01 9C 80 1A 05 03 00 00 00 0E C5 8A 05 03 1C 00 BF 00 0C 00 FF 00 51 00 88 00 08 00 00 00 80 00 00 00 80 00 C1 00 FF 00 FF 00 28 7F 24 

[2019-11-04 12:09:41.654]# RECV HEX>
00 06 00 B6 00 01 A8 3D 00 06 00 B6 00 01 A8 3D 01 06 00 66 00 00 69 D5 

[2019-11-04 12:09:41.778]# RECV HEX>
01 06 00 66 00 00 69 D5 

[2019-11-04 12:09:41.888]# RECV HEX>
01 06 00 66 00 00 69 D5 

[2019-11-04 12:09:42.137]# RECV HEX>
02 06 00 66 00 00 69 E6 02 06 00 66 00 00 69 E6 03 06 00 66 00 00 68 37 03 06 00 66 00 00 68 37 04 06 00 66 00 00 69 80 04 06 00 66 00 00 69 80 01 06 00 56 00 00 69 DA 

[2019-11-04 12:09:42.262]# RECV HEX>
01 06 00 56 00 00 69 DA 

[2019-11-04 12:09:42.387]# RECV HEX>
01 06 00 56 00 00 69 DA 

[2019-11-04 12:09:42.512]# RECV HEX>
02 06 00 56 00 00 69 E9 02 06 00 56 00 00 69 E9 

[2019-11-04 12:09:42.636]# RECV HEX>
03 06 00 56 00 00 68 38 03 06 00 56 00 00 68 38 04 06 00 56 00 00 69 8F 04 06 00 56 00 00 69 8F 01 03 00 5F 00 01 B4 18 

[2019-11-04 12:09:42.761]# RECV HEX>
01 03 00 5F 00 01 B4 18 

[2019-11-04 12:09:42.902]# RECV HEX>
01 03 00 5F 00 01 B4 18 E0 

[2019-11-04 12:09:43.245]# RECV HEX>
02 03 00 5F 00 01 B4 2B 02 03 02 00 00 FC 44 03 03 00 5F 00 01 B5 FA 03 03 02 00 00 C1 84 04 03 00 5F 00 01 B4 4D 04 03 02 00 00 74 44 06 03 00 02 00 04 E4 7E 06 03 08 00 F2 01 B7 03 06 01 9D 89 DB 05 03 00 00 00 0E C5 8A 05 03 1C 00 BF 00 0C 00 FF 00 51 00 88 00 08 00 00 00 80 00 00 00 80 00 C1 00 FF 00 FF 00 2A FE E5 

[2019-11-04 12:09:43.323]# RECV HEX>
00 06 00 B6 00 01 A8 3D 00 06 00 B6 00 01 A8 3D 01 06 00 66 00 00 69 D5 

[2019-11-04 12:09:43.432]# RECV HEX>
01 06 00 66 00 00 69 D5 

[2019-11-04 12:09:43.557]# RECV HEX>
01 06 00 66 00 00 69 D5 

[2019-11-04 12:09:43.806]# RECV HEX>
02 06 00 66 00 00 69 E6 02 06 00 66 00 00 69 E6 03 06 00 66 00 00 68 37 03 06 00 66 00 00 68 37 04 06 00 66 00 00 69 80 04 06 00 66 00 00 69 80 01 06 00 56 00 00 69 DA 

[2019-11-04 12:09:43.931]# RECV HEX>
01 06 00 56 00 00 69 DA 

[2019-11-04 12:09:44.056]# RECV HEX>
01 06 00 56 00 00 69 DA 

[2019-11-04 12:09:44.306]# RECV HEX>
02 06 00 56 00 00 69 E9 02 06 00 56 00 00 69 E9 03 06 00 56 00 00 68 38 03 06 00 56 00 00 68 38 04 06 00 56 00 00 69 8F 04 06 00 56 00 00 69 8F 01 03 00 5F 00 01 B4 18 

[2019-11-04 12:09:44.430]# RECV HEX>
01 03 00 5F 00 01 B4 18 

[2019-11-04 12:09:44.555]# RECV HEX>
01 03 00 5F 00 01 B4 18 

[2019-11-04 12:09:44.898]# RECV HEX>
02 03 00 5F 00 01 B4 2B 02 03 02 00 00 FC 44 03 03 00 5F 00 01 B5 FA 03 03 02 00 00 C1 84 04 03 00 5F 00 01 B4 4D 04 03 02 00 00 74 44 06 03 00 02 00 04 E4 7E 06 03 08 01 03 01 A9 03 07 01 A3 D0 CA 05 03 00 00 00 0E C5 8A 05 03 1C 00 BF 00 0C 00 FF 00 51 00 88 00 08 00 00 00 80 00 00 00 80 00 C1 00 FF 00 FF 00 28 7F 24 

[2019-11-04 12:09:44.976]# RECV HEX>
00 06 00 B6 00 01 A8 3D 00 06 00 B6 00 01 A8 3D 01 06 00 66 00 00 69 D5 

[2019-11-04 12:09:45.101]# RECV HEX>
01 06 00 66 00 00 69 D5 

[2019-11-04 12:09:45.226]# RECV HEX>
01 06 00 66 00 00 69 D5 

[2019-11-04 12:09:45.460]# RECV HEX>
02 06 00 66 00 00 69 E6 02 06 00 66 00 00 69 E6 03 06 00 66 00 00 68 37 03 06 00 66 00 00 68 37 04 06 00 66 00 00 69 80 04 06 00 66 00 00 69 80 01 06 00 56 00 00 69 DA 

[2019-11-04 12:09:45.585]# RECV HEX>
01 06 00 56 00 00 69 DA 

[2019-11-04 12:09:45.710]# RECV HEX>
01 06 00 56 00 00 69 DA 

[2019-11-04 12:09:45.834]# RECV HEX>
02 06 00 56 00 00 69 E9 02 06 00 56 00 00 69 E9 

[2019-11-04 12:09:45.959]# RECV HEX>
03 06 00 56 00 00 68 38 03 06 00 56 00 00 68 38 04 06 00 56 00 00 69 8F 04 06 00 56 00 00 69 8F 01 03 00 5F 00 01 B4 18 

[2019-11-04 12:09:46.084]# RECV HEX>
01 03 00 5F 00 01 B4 18 

[2019-11-04 12:09:46.209]# RECV HEX>
01 03 00 5F 00 01 B4 18 

[2019-11-04 12:09:46.474]# RECV HEX>
02 03 00 5F 00 01 B4 2B 02 03 02 00 00 FC 44 03 03 00 5F 00 01 B5 FA 03 03 02 00 00 C1 84 04 03 00 5F 00 01 B4 4D 04 03 02 00 00 74 44 06 03 00 02 00 04 E4 7E 06 03 08 00 F9 01 B5 03 18 01 98 EA DE 

[2019-11-04 12:09:46.552]# RECV HEX>
05 03 00 00 00 0E C5 8A 05 03 1C 00 BF 00 0C 00 FF 00 51 00 88 00 08 00 00 00 80 00 00 00 80 00 C1 00 FF 00 FF 00 28 7F 24 

[2019-11-04 12:09:46.630]# RECV HEX>
00 06 00 B6 00 01 A8 3D 00 06 00 B6 00 01 A8 3D 01 06 00 66 00 00 69 D5 

[2019-11-04 12:09:46.755]# RECV HEX>
01 06 00 66 00 00 69 D5 

[2019-11-04 12:09:46.880]# RECV HEX>
01 06 00 66 00 00 69 D5 

[2019-11-04 12:09:47.114]# RECV HEX>
02 06 00 66 00 00 69 E6 02 06 00 66 00 00 69 E6 03 06 00 66 00 00 68 37 03 06 00 66 00 00 68 37 04 06 00 66 00 00 69 80 04 06 00 66 00 00 69 80 01 06 00 56 00 00 69 DA 

[2019-11-04 12:09:47.238]# RECV HEX>
01 06 00 56 00 00 69 DA 

[2019-11-04 12:09:47.363]# RECV HEX>
01 06 00 56 00 00 69 DA 

[2019-11-04 12:09:47.488]# RECV HEX>
02 06 00 56 00 00 69 E9 02 06 00 56 00 00 69 E9 

[2019-11-04 12:09:47.566]# RECV HEX>
03 06 00 56 00 00 68 38 03 06 00 56 00 00 68 38 04 06 00 56 00 00 69 8F 04 06 00 56 00 00 69 8F 

[2019-11-04 12:09:47.613]# RECV HEX>
01 03 00 5F 00 01 B4 18 

[2019-11-04 12:09:47.738]# RECV HEX>
01 03 00 5F 00 01 B4 18 

[2019-11-04 12:09:47.862]# RECV HEX>
01 03 00 5F 00 01 B4 18 

[2019-11-04 12:09:48.128]# RECV HEX>
02 03 00 5F 00 01 B4 2B 02 03 02 00 00 FC 44 03 03 00 5F 00 01 B5 FA 03 03 02 00 00 C1 84 04 03 00 5F 00 01 B4 4D 04 03 02 00 00 74 44 06 03 00 02 00 04 E4 7E 06 03 08 00 F2 01 CA 03 0A 01 A3 A4 02 

[2019-11-04 12:09:48.221]# RECV HEX>
05 03 00 00 00 0E C5 8A 05 03 1C 00 BF 00 0C 00 FF 00 51 00 88 00 08 00 00 00 80 00 00 00 80 00 C1 00 FF 00 FF 00 28 7F 24 

[2019-11-04 12:09:48.299]# RECV HEX>
00 06 00 B6 00 01 A8 3D 00 06 00 B6 00 01 A8 3D 01 06 00 66 00 00 69 D5 

[2019-11-04 12:09:48.408]# RECV HEX>
01 06 00 66 00 00 69 D5 

[2019-11-04 12:09:48.533]# RECV HEX>
01 06 00 66 00 00 69 D5 

[2019-11-04 12:09:48.767]# RECV HEX>
02 06 00 66 00 00 69 E6 02 06 00 66 00 00 69 E6 03 06 00 66 00 00 68 37 03 06 00 66 00 00 68 37 04 06 00 66 00 00 69 80 04 06 00 66 00 00 69 80 01 06 00 56 00 00 69 DA 

[2019-11-04 12:09:48.892]# RECV HEX>
01 06 00 56 00 00 69 DA 

[2019-11-04 12:09:49.017]# RECV HEX>
01 06 00 56 00 00 69 DA 

[2019-11-04 12:09:49.266]# RECV HEX>
02 06 00 56 00 00 69 E9 02 06 00 56 00 00 69 E9 03 06 00 56 00 00 68 38 03 06 00 56 00 00 68 38 04 06 00 56 00 00 69 8F 04 06 00 56 00 00 69 8F 01 03 00 5F 00 01 B4 18 

[2019-11-04 12:09:49.391]# RECV HEX>
01 03 00 5F 00 01 B4 18 

[2019-11-04 12:09:49.516]# RECV HEX>
01 03 00 5F 00 01 B4 18 

[2019-11-04 12:09:49.875]# RECV HEX>
02 03 00 5F 00 01 B4 2B 02 03 02 00 00 FC 44 03 03 00 5F 00 01 B5 FA 03 03 02 00 00 C1 84 04 03 00 5F 00 01 B4 4D 04 03 02 00 00 74 44 06 03 00 02 00 04 E4 7E 06 03 08 00 F3 01 B7 03 1B 01 A2 49 0D 05 03 00 00 00 0E C5 8A 05 03 1C 00 BF 00 0C 00 FF 00 51 00 88 00 08 00 00 00 80 00 00 00 80 00 C1 00 FF 00 FF 00 28 7F 24 

[2019-11-04 12:09:49.953]# RECV HEX>
00 06 00 B6 00 01 A8 3D 00 06 00 B6 00 01 A8 3D 01 06 00 66 00 00 69 D5 

[2019-11-04 12:09:50.078]# RECV HEX>
01 06 00 66 00 00 69 D5 

[2019-11-04 12:09:50.187]# RECV HEX>
01 06 00 66 00 00 69 D5 

[2019-11-04 12:09:50.421]# RECV HEX>
02 06 00 66 00 00 69 E6 02 06 00 66 00 00 69 E6 03 06 00 66 00 00 68 37 03 06 00 66 00 00 68 37 04 06 00 66 00 00 69 80 04 06 00 66 00 00 69 80 01 06 00 56 00 00 69 DA 

[2019-11-04 12:09:50.546]# RECV HEX>
01 06 00 56 00 00 69 DA 

[2019-11-04 12:09:50.670]# RECV HEX>
01 06 00 56 00 00 69 DA 

[2019-11-04 12:09:50.920]# RECV HEX>
02 06 00 56 00 00 69 E9 02 06 00 56 00 00 69 E9 03 06 00 56 00 00 68 38 03 06 00 56 00 00 68 38 04 06 00 56 00 00 69 8F 04 06 00 56 00 00 69 8F 01 03 00 5F 00 01 B4 18 

[2019-11-04 12:09:51.045]# RECV HEX>
01 03 00 5F 00 01 B4 18 

[2019-11-04 12:09:51.185]# RECV HEX>
01 03 00 5F 00 01 B4 18 

[2019-11-04 12:09:51.528]# RECV HEX>
02 03 00 5F 00 01 B4 2B 02 03 02 00 00 FC 44 03 03 00 5F 00 01 B5 FA 03 03 02 00 00 C1 84 04 03 00 5F 00 01 B4 4D 04 03 02 00 00 74 44 06 03 00 02 00 04 E4 7E 06 03 08 00 FC 01 B7 03 01 01 95 D6 1C 05 03 00 00 00 0E C5 8A 05 03 1C 00 BE 00 0C 00 FF 00 51 00 88 00 08 00 00 00 80 00 00 00 80 00 C1 00 FF 00 FF 00 28 81 A6 

[2019-11-04 12:09:51.606]# RECV HEX>
00 06 00 B6 00 01 A8 3D 00 06 00 B6 00 01 A8 3D 01 06 00 66 00 00 69 D5 

[2019-11-04 12:09:51.716]# RECV HEX>
01 06 00 66 00 00 69 D5 

[2019-11-04 12:09:51.840]# RECV HEX>
01 06 00 66 00 00 69 D5 

[2019-11-04 12:09:52.074]# RECV HEX>
02 06 00 66 00 00 69 E6 02 06 00 66 00 00 69 E6 03 06 00 66 00 00 68 37 03 06 00 66 00 00 68 37 04 06 00 66 00 00 69 80 04 06 00 66 00 00 69 80 01 06 00 56 00 00 69 DA 

[2019-11-04 12:09:52.199]# RECV HEX>
01 06 00 56 00 00 69 DA 

[2019-11-04 12:09:52.324]# RECV HEX>
01 06 00 56 00 00 69 DA 

[2019-11-04 12:09:52.449]# RECV HEX>
02 06 00 56 00 00 69 E9 02 06 00 56 00 00 69 E9 

[2019-11-04 12:09:52.574]# RECV HEX>
03 06 00 56 00 00 68 38 03 06 00 56 00 00 68 38 04 06 00 56 00 00 69 8F 04 06 00 56 00 00 69 8F 01 03 00 5F 00 01 B4 18 

[2019-11-04 12:09:52.698]# RECV HEX>
01 03 00 5F 00 01 B4 18 

[2019-11-04 12:09:52.823]# RECV HEX>
01 03 00 5F 00 01 B4 18 

[2019-11-04 12:09:53.182]# RECV HEX>
02 03 00 5F 00 01 B4 2B 02 03 02 00 00 FC 44 03 03 00 5F 00 01 B5 FA 03 03 02 00 00 C1 84 04 03 00 5F 00 01 B4 4D 04 03 02 00 00 74 44 06 03 00 02 00 04 E4 7E 06 03 08 00 EF 01 B6 03 0D 01 A7 88 CB 05 03 00 00 00 0E C5 8A 05 03 1C 00 BD 00 0C 00 FF 00 51 00 88 00 08 00 00 00 80 00 00 00 80 00 C1 00 FF 00 FF 00 28 80 61 

[2019-11-04 12:09:53.244]# RECV HEX>
00 06 00 B6 00 01 A8 3D 00 06 00 B6 00 01 A8 3D 01 06 00 66 00 00 69 D5 

[2019-11-04 12:09:53.369]# RECV HEX>
01 06 00 66 00 00 69 D5 

[2019-11-04 12:09:53.494]# RECV HEX>
01 06 00 66 00 00 69 D5 

[2019-11-04 12:09:53.728]# RECV HEX>
02 06 00 66 00 00 69 E6 02 06 00 66 00 00 69 E6 03 06 00 66 00 00 68 37 03 06 00 66 00 00 68 37 04 06 00 66 00 00 69 80 04 06 00 66 00 00 69 80 01 06 00 56 00 00 69 DA 

[2019-11-04 12:09:53.853]# RECV HEX>
01 06 00 56 00 00 69 DA 

[2019-11-04 12:09:53.978]# RECV HEX>
01 06 00 56 00 00 69 DA 

[2019-11-04 12:09:54.227]# RECV HEX>
02 06 00 56 00 00 69 E9 02 06 00 56 00 00 69 E9 03 06 00 56 00 00 68 38 03 06 00 56 00 00 68 38 04 06 00 56 00 00 69 8F 04 06 00 56 00 00 69 8F 01 03 00 5F 00 01 B4 18 

[2019-11-04 12:09:54.352]# RECV HEX>
01 03 00 5F 00 01 B4 18 

[2019-11-04 12:09:54.477]# RECV HEX>
01 03 00 5F 00 01 B4 18 

[2019-11-04 12:09:54.836]# RECV HEX>
02 03 00 5F 00 01 B4 2B 02 03 02 00 00 FC 44 03 03 00 5F 00 01 B5 FA 03 03 02 00 00 C1 84 04 03 00 5F 00 01 B4 4D 04 03 02 00 00 74 44 06 03 00 02 00 04 E4 7E 06 03 08 01 07 01 BC 02 FD 01 93 B9 10 05 03 00 00 00 0E C5 8A 05 03 1C 00 BC 00 0C 00 FF 00 51 00 88 00 08 00 00 00 80 00 00 00 80 00 C1 00 FF 00 FF 00 28 7E E3 

[2019-11-04 12:09:54.898]# RECV HEX>
00 06 00 B6 00 01 A8 3D 00 06 00 B6 00 01 A8 3D 01 06 00 66 00 00 69 D5 

[2019-11-04 12:09:55.023]# RECV HEX>
01 06 00 66 00 00 69 D5 

[2019-11-04 12:09:55.148]# RECV HEX>
01 06 00 66 00 00 69 D5 

[2019-11-04 12:09:55.382]# RECV HEX>
02 06 00 66 00 00 69 E6 02 06 00 66 00 00 69 E6 03 06 00 66 00 00 68 37 03 06 00 66 00 00 68 37 04 06 00 66 00 00 69 80 04 06 00 66 00 00 69 80 01 06 00 56 00 00 69 DA 

[2019-11-04 12:09:55.506]# RECV HEX>
01 06 00 56 00 00 69 DA 

[2019-11-04 12:09:55.631]# RECV HEX>
01 06 00 56 00 00 69 DA 

[2019-11-04 12:09:55.756]# RECV HEX>
02 06 00 56 00 00 69 E9 02 06 00 56 00 00 69 E9 

[2019-11-04 12:09:55.881]# RECV HEX>
03 06 00 56 00 00 68 38 03 06 00 56 00 00 68 38 04 06 00 56 00 00 69 8F 04 06 00 56 00 00 69 8F 01 03 00 5F 00 01 B4 18 

[2019-11-04 12:09:56.006]# RECV HEX>
01 03 00 5F 00 01 B4 18 

[2019-11-04 12:09:56.130]# RECV HEX>
01 03 00 5F 00 01 B4 18 

[2019-11-04 12:09:56.489]# RECV HEX>
02 03 00 5F 00 01 B4 2B 02 03 02 00 00 FC 44 03 03 00 5F 00 01 B5 FA 03 03 02 00 00 C1 84 04 03 00 5F 00 01 B4 4D 04 03 02 00 00 74 44 06 03 00 02 00 04 E4 7E 06 03 08 00 FA 01 BE 03 11 01 8F EC 13 05 03 00 00 00 0E C5 8A 05 03 1C 00 BB 00 0C 00 FF 00 51 00 88 00 08 00 00 00 80 00 00 00 80 00 C1 00 FF 00 FF 00 28 81 AF 

[2019-11-04 12:09:56.567]# RECV HEX>
00 06 00 B6 00 01 A8 3D 00 06 00 B6 00 01 A8 3D 01 06 00 66 00 00 69 D5 

[2019-11-04 12:09:56.676]# RECV HEX>
01 06 00 66 00 00 69 D5 

[2019-11-04 12:09:56.817]# RECV HEX>
01 06 00 66 00 00 69 D5 

[2019-11-04 12:09:57.051]# RECV HEX>
02 06 00 66 00 00 69 E6 02 06 00 66 00 00 69 E6 03 06 00 66 00 00 68 37 03 06 00 66 00 00 68 37 04 06 00 66 00 00 69 80 04 06 00 66 00 00 69 80 01 06 00 56 00 00 69 DA 

[2019-11-04 12:09:57.176]# RECV HEX>
01 06 00 56 00 00 69 DA 

[2019-11-04 12:09:57.300]# RECV HEX>
01 06 00 56 00 00 69 DA 

[2019-11-04 12:09:57.534]# RECV HEX>
02 06 00 56 00 00 69 E9 02 06 00 56 00 00 69 E9 03 06 00 56 00 00 68 38 03 06 00 56 00 00 68 38 04 06 00 56 00 00 69 8F 04 06 00 56 00 00 69 8F 01 03 00 5F 00 01 B4 18 

[2019-11-04 12:09:57.675]# RECV HEX>
01 03 00 5F 00 01 B4 18 

[2019-11-04 12:09:57.800]# RECV HEX>
01 03 00 5F 00 01 B4 18 

[2019-11-04 12:09:58.158]# RECV HEX>
02 03 00 5F 00 01 B4 2B 02 03 02 00 00 FC 44 03 03 00 5F 00 01 B5 FA 03 03 02 00 00 C1 84 04 03 00 5F 00 01 B4 4D 04 03 02 00 00 74 44 06 03 00 02 00 04 E4 7E 06 03 08 00 FE 01 B9 03 0D 01 94 9D DE 05 03 00 00 00 0E C5 8A 05 03 1C 00 BA 00 0C 00 FF 00 51 00 88 00 08 00 00 00 80 00 00 00 80 00 C1 00 FF 00 FF 00 28 7F 2D 

[2019-11-04 12:09:58.236]# RECV HEX>
00 06 00 B6 00 01 A8 3D 00 06 00 B6 00 01 A8 3D 01 06 00 66 00 00 69 D5 

[2019-11-04 12:09:58.346]# RECV HEX>
01 06 00 66 00 00 69 D5 

[2019-11-04 12:09:58.470]# RECV HEX>
01 06 00 66 00 00 69 D5 

[2019-11-04 12:09:58.720]# RECV HEX>
02 06 00 66 00 00 69 E6 02 06 00 66 00 00 69 E6 03 06 00 66 00 00 68 37 03 06 00 66 00 00 68 37 04 06 00 66 00 00 69 80 04 06 00 66 00 00 69 80 01 06 00 56 00 00 69 DA 

[2019-11-04 12:09:58.829]# RECV HEX>
01 06 00 56 00 00 69 DA 

[2019-11-04 12:09:58.954]# RECV HEX>
01 06 00 56 00 00 69 DA 

[2019-11-04 12:09:59.204]# RECV HEX>
02 06 00 56 00 00 69 E9 02 06 00 56 00 00 69 E9 03 06 00 56 00 00 68 38 03 06 00 56 00 00 68 38 04 06 00 56 00 00 69 8F 04 06 00 56 00 00 69 8F 01 03 00 5F 00 01 B4 18 

[2019-11-04 12:09:59.328]# RECV HEX>
01 03 00 5F 00 01 B4 18 

[2019-11-04 12:09:59.469]# RECV HEX>
01 03 00 5F 00 01 B4 18 

[2019-11-04 12:09:59.812]# RECV HEX>
02 03 00 5F 00 01 B4 2B 02 03 02 00 00 FC 44 03 03 00 5F 00 01 B5 FA 03 03 02 00 00 C1 84 04 03 00 5F 00 01 B4 4D 04 03 02 00 00 74 44 06 03 00 02 00 04 E4 7E 06 03 08 00 F9 01 BE 03 19 01 90 1F 19 05 03 00 00 00 0E C5 8A 05 03 1C 00 B9 00 0C 00 FF 00 51 00 88 00 08 00 00 00 80 00 00 00 80 00 C1 00 FF 00 FF 00 28 7E EA 

[2019-11-04 12:09:59.890]# RECV HEX>
00 06 00 B6 00 01 A8 3D 00 06 00 B6 00 01 A8 3D 01 06 00 66 00 00 69 D5 

[2019-11-04 12:10:00.015]# RECV HEX>
01 06 00 66 00 00 69 D5 

[2019-11-04 12:10:00.124]# RECV HEX>
01 06 00 66 00 00 69 D5 

[2019-11-04 12:10:00.374]# RECV HEX>
02 06 00 66 00 00 69 E6 02 06 00 66 00 00 69 E6 03 06 00 66 00 00 68 37 03 06 00 66 00 00 68 37 04 06 00 66 00 00 69 80 04 06 00 66 00 00 69 80 01 06 00 56 00 00 69 DA 

[2019-11-04 12:10:00.498]# RECV HEX>
01 06 00 56 00 00 69 DA 

[2019-11-04 12:10:00.608]# RECV HEX>
01 06 00 56 00 00 69 DA 

[2019-11-04 12:10:00.857]# RECV HEX>
02 06 00 56 00 00 69 E9 02 06 00 56 00 00 69 E9 03 06 00 56 00 00 68 38 03 06 00 56 00 00 68 38 04 06 00 56 00 00 69 8F 04 06 00 56 00 00 69 8F 01 03 00 5F 00 01 B4 18 

[2019-11-04 12:10:00.982]# RECV HEX>
01 03 00 5F 00 01 B4 18 

[2019-11-04 12:10:01.122]# RECV HEX>
01 03 00 5F 00 01 B4 18 

[2019-11-04 12:10:01.481]# RECV HEX>
02 03 00 5F 00 01 B4 2B 02 03 02 00 00 FC 44 03 03 00 5F 00 01 B5 FA 03 03 02 00 00 C1 84 04 03 00 5F 00 01 B4 4D 04 03 02 00 00 74 44 06 03 00 02 00 04 E4 7E 06 03 08 01 05 01 D3 02 FC 01 A6 DF 0E 05 03 00 00 00 0E C5 8A 05 03 1C 00 B8 00 0C 00 FF 00 51 00 88 00 08 00 00 00 80 00 00 00 80 00 C1 00 FF 00 FF 00 28 80 68 

[2019-11-04 12:10:01.544]# RECV HEX>
00 06 00 B6 00 01 A8 3D 00 06 00 B6 00 01 A8 3D 01 06 00 66 00 00 69 D5 

[2019-11-04 12:10:01.668]# RECV HEX>
01 06 00 66 00 00 69 D5 

[2019-11-04 12:10:01.809]# RECV HEX>
01 06 00 66 00 00 69 D5 FF 

[2019-11-04 12:10:02.027]# RECV HEX>
02 06 00 66 00 00 69 E6 02 06 00 66 00 00 69 E6 03 06 00 66 00 00 68 37 03 06 00 66 00 00 68 37 04 06 00 66 00 00 69 80 04 06 00 66 00 00 69 80 01 06 00 56 00 00 69 DA 

[2019-11-04 12:10:02.152]# RECV HEX>
01 06 00 56 00 00 69 DA 

[2019-11-04 12:10:02.277]# RECV HEX>
01 06 00 56 00 00 69 DA 

[2019-11-04 12:10:02.402]# RECV HEX>
02 06 00 56 00 00 69 E9 02 06 00 56 00 00 69 E9 

[2019-11-04 12:10:02.526]# RECV HEX>
03 06 00 56 00 00 68 38 03 06 00 56 00 00 68 38 04 06 00 56 00 00 69 8F 04 06 00 56 00 00 69 8F 01 03 00 5F 00 01 B4 18 

[2019-11-04 12:10:02.651]# RECV HEX>
01 03 00 5F 00 01 B4 18 

[2019-11-04 12:10:02.776]# RECV HEX>
01 03 00 5F 00 01 B4 18 

[2019-11-04 12:10:03.135]# RECV HEX>
02 03 00 5F 00 01 B4 2B 02 03 02 00 00 FC 44 03 03 00 5F 00 01 B5 FA 03 03 02 00 00 C1 84 04 03 00 5F 00 01 B4 4D 04 03 02 00 00 74 44 06 03 00 02 00 04 E4 7E 06 03 08 00 EF 01 C7 03 03 01 9C D4 D0 05 03 00 00 00 0E C5 8A 05 03 1C 00 B7 00 0C 00 FF 00 51 00 88 00 08 00 00 00 80 00 00 00 80 00 C1 00 FF 00 FF 00 29 41 B3 

[2019-11-04 12:10:03.197]# RECV HEX>
00 06 00 B6 00 01 A8 3D 00 06 00 B6 00 01 A8 3D 01 06 00 66 00 00 69 D5 

[2019-11-04 12:10:03.322]# RECV HEX>
01 06 00 66 00 00 69 D5 

[2019-11-04 12:10:03.447]# RECV HEX>
01 06 00 66 00 00 69 D5 

[2019-11-04 12:10:03.681]# RECV HEX>
02 06 00 66 00 00 69 E6 02 06 00 66 00 00 69 E6 03 06 00 66 00 00 68 37 03 06 00 66 00 00 68 37 04 06 00 66 00 00 69 80 04 06 00 66 00 00 69 80 01 06 00 56 00 00 69 DA 

[2019-11-04 12:10:03.806]# RECV HEX>
01 06 00 56 00 00 69 DA 

[2019-11-04 12:10:03.930]# RECV HEX>
01 06 00 56 00 00 69 DA 

[2019-11-04 12:10:04.180]# RECV HEX>
02 06 00 56 00 00 69 E9 02 06 00 56 00 00 69 E9 03 06 00 56 00 00 68 38 03 06 00 56 00 00 68 38 04 06 00 56 00 00 69 8F 04 06 00 56 00 00 69 8F 01 03 00 5F 00 01 B4 18 

[2019-11-04 12:10:04.305]# RECV HEX>
01 03 00 5F 00 01 B4 18 

[2019-11-04 12:10:04.430]# RECV HEX>
01 03 00 5F 00 01 B4 18 

[2019-11-04 12:10:04.710]# RECV HEX>
02 03 00 5F 00 01 B4 2B 02 03 02 00 00 FC 44 03 03 00 5F 00 01 B5 FA 03 03 02 00 00 C1 84 04 03 00 5F 00 01 B4 4D 04 03 02 00 00 74 44 06 03 00 02 00 04 E4 7E 06 03 08 00 FF 01 CC 03 07 01 92 A0 D5 

[2019-11-04 12:10:04.788]# RECV HEX>
05 03 00 00 00 0E C5 8A 05 03 1C 00 B6 00 0C 00 FF 00 51 00 88 00 08 00 00 00 80 00 00 00 80 00 C1 00 FF 00 FF 00 28 7E F1 

[2019-11-04 12:10:04.866]# RECV HEX>
00 06 00 B6 00 01 A8 3D 00 06 00 B6 00 01 A8 3D 01 06 00 66 00 00 69 D5 

[2019-11-04 12:10:04.991]# RECV HEX>
01 06 00 66 00 00 69 D5 

[2019-11-04 12:10:05.116]# RECV HEX>
01 06 00 66 00 00 69 D5 

[2019-11-04 12:10:05.350]# RECV HEX>
02 06 00 66 00 00 69 E6 02 06 00 66 00 00 69 E6 03 06 00 66 00 00 68 37 03 06 00 66 00 00 68 37 04 06 00 66 00 00 69 80 04 06 00 66 00 00 69 80 01 06 00 56 00 00 69 DA 

[2019-11-04 12:10:05.475]# RECV HEX>
01 06 00 56 00 00 69 DA 

[2019-11-04 12:10:05.615]# RECV HEX>
01 06 00 56 00 00 69 DA FF FF F8 

[2019-11-04 12:10:05.849]# RECV HEX>
02 06 00 56 00 00 69 E9 02 06 00 56 00 00 69 E9 03 06 00 56 00 00 68 38 03 06 00 56 00 00 68 38 04 06 00 56 00 00 69 8F 04 06 00 56 00 00 69 8F 01 03 00 5F 00 01 B4 18 

[2019-11-04 12:10:05.974]# RECV HEX>
01 03 00 5F 00 01 B4 18 

[2019-11-04 12:10:06.099]# RECV HEX>
01 03 00 5F 00 01 B4 18 

[2019-11-04 12:10:06.458]# RECV HEX>
02 03 00 5F 00 01 B4 2B 02 03 02 00 00 FC 44 03 03 00 5F 00 01 B5 FA 03 03 02 00 00 C1 84 04 03 00 5F 00 01 B4 4D 04 03 02 00 00 74 44 06 03 00 02 00 04 E4 7E 06 03 08 00 FC 01 C3 03 0F 01 92 46 16 05 03 00 00 00 0E C5 8A 05 03 1C 00 B5 00 0C 00 FF 00 51 00 88 00 08 00 00 00 80 00 00 00 80 00 C1 00 FF 00 FF 00 28 7F 36 

[2019-11-04 12:10:06.536]# RECV HEX>
00 06 00 B6 00 01 A8 3D 00 06 00 B6 00 01 A8 3D 01 06 00 66 00 00 69 D5 

[2019-11-04 12:10:06.645]# RECV HEX>
01 06 00 66 00 00 69 D5 

[2019-11-04 12:10:06.770]# RECV HEX>
01 06 00 66 00 00 69 D5 

[2019-11-04 12:10:07.019]# RECV HEX>
02 06 00 66 00 00 69 E6 02 06 00 66 00 00 69 E6 03 06 00 66 00 00 68 37 03 06 00 66 00 00 68 37 04 06 00 66 00 00 69 80 04 06 00 66 00 00 69 80 01 06 00 56 00 00 69 DA FF 

[2019-11-04 12:10:07.128]# RECV HEX>
01 06 00 56 00 00 69 DA 

[2019-11-04 12:10:07.253]# RECV HEX>
01 06 00 56 00 00 69 DA 

[2019-11-04 12:10:07.503]# RECV HEX>
02 06 00 56 00 00 69 E9 02 06 00 56 00 00 69 E9 03 06 00 56 00 00 68 38 03 06 00 56 00 00 68 38 04 06 00 56 00 00 69 8F 04 06 00 56 00 00 69 8F 01 03 00 5F 00 01 B4 18 

[2019-11-04 12:10:07.628]# RECV HEX>
01 03 00 5F 00 01 B4 18 

[2019-11-04 12:10:07.752]# RECV HEX>
01 03 00 5F 00 01 B4 18 

[2019-11-04 12:10:08.111]# RECV HEX>
02 03 00 5F 00 01 B4 2B 02 03 02 00 00 FC 44 03 03 00 5F 00 01 B5 FA 03 03 02 00 00 C1 84 04 03 00 5F 00 01 B4 4D 04 03 02 00 00 74 44 06 03 00 02 00 04 E4 7E 06 03 08 01 02 01 BD 03 08 01 99 40 19 05 03 00 00 00 0E C5 8A 05 03 1C 00 B4 00 0C 00 FF 00 51 00 88 00 08 00 00 00 80 00 00 00 80 00 C1 00 FF 00 FF 00 28 81 B4 

[2019-11-04 12:10:08.189]# RECV HEX>
00 06 00 B6 00 01 A8 3D 00 06 00 B6 00 01 A8 3D 01 06 00 66 00 00 69 D5 

[2019-11-04 12:10:08.314]# RECV HEX>
01 06 00 66 00 00 69 D5 F0 

[2019-11-04 12:10:08.439]# RECV HEX>
01 06 00 66 00 00 69 D5 FE C0 

[2019-11-04 12:10:08.673]# RECV HEX>
02 06 00 66 00 00 69 E6 02 06 00 66 00 00 69 E6 03 06 00 66 00 00 68 37 03 06 00 66 00 00 68 37 04 06 00 66 00 00 69 80 04 06 00 66 00 00 69 80 01 06 00 56 00 00 69 DA 

[2019-11-04 12:10:08.798]# RECV HEX>
01 06 00 56 00 00 69 DA 

[2019-11-04 12:10:08.922]# RECV HEX>
01 06 00 56 00 00 69 DA 

[2019-11-04 12:10:09.047]# RECV HEX>
02 06 00 56 00 00 69 E9 02 06 00 56 00 00 69 E9 

[2019-11-04 12:10:09.172]# RECV HEX>
03 06 00 56 00 00 68 38 03 06 00 56 00 00 68 38 04 06 00 56 00 00 69 8F 04 06 00 56 00 00 69 8F 01 03 00 5F 00 01 B4 18 

[2019-11-04 12:10:09.297]# RECV HEX>
01 03 00 5F 00 01 B4 18 

[2019-11-04 12:10:09.422]# RECV HEX>
01 03 00 5F 00 01 B4 18 

[2019-11-04 12:10:09.780]# RECV HEX>
02 03 00 5F 00 01 B4 2B 02 03 02 00 00 FC 44 03 03 00 5F 00 01 B5 FA 03 03 02 00 00 C1 84 04 03 00 5F 00 01 B4 4D 04 03 02 00 00 74 44 06 03 00 02 00 04 E4 7E 06 03 08 01 00 01 B2 03 11 01 9E A7 DD 05 03 00 00 00 0E C5 8A 05 03 1C 00 B3 00 0C 00 FF 00 51 00 88 00 08 00 00 00 80 00 00 00 80 00 C1 00 FF 00 FF 00 28 7E F8 

[2019-11-04 12:10:09.858]# RECV HEX>
00 06 00 B6 00 01 A8 3D 00 06 00 B6 00 01 A8 3D 01 06 00 66 00 00 69 D5 

[2019-11-04 12:10:09.968]# RECV HEX>
01 06 00 66 00 00 69 D5 

[2019-11-04 12:10:10.092]# RECV HEX>
01 06 00 66 00 00 69 D5 

[2019-11-04 12:10:10.326]# RECV HEX>
02 06 00 66 00 00 69 E6 02 06 00 66 00 00 69 E6 03 06 00 66 00 00 68 37 03 06 00 66 00 00 68 37 04 06 00 66 00 00 69 80 04 06 00 66 00 00 69 80 01 06 00 56 00 00 69 DA 

[2019-11-04 12:10:10.451]# RECV HEX>
01 06 00 56 00 00 69 DA 

[2019-11-04 12:10:10.576]# RECV HEX>
01 06 00 56 00 00 69 DA 

[2019-11-04 12:10:10.826]# RECV HEX>
02 06 00 56 00 00 69 E9 02 06 00 56 00 00 69 E9 03 06 00 56 00 00 68 38 03 06 00 56 00 00 68 38 04 06 00 56 00 00 69 8F 04 06 00 56 00 00 69 8F 01 03 00 5F 00 01 B4 18 

[2019-11-04 12:10:10.966]# RECV HEX>
01 03 00 5F 00 01 B4 18 F8 FC 

[2019-11-04 12:10:11.091]# RECV HEX>
01 03 00 5F 00 01 B4 18 FF 

[2019-11-04 12:10:11.356]# RECV HEX>
02 03 00 5F 00 01 B4 2B 02 03 02 00 00 FC 44 03 03 00 5F 00 01 B5 FA 03 03 02 00 00 C1 84 04 03 00 5F 00 01 B4 4D 04 03 02 00 00 74 44 06 03 00 02 00 04 E4 7E 06 03 08 00 F8 01 B1 03 0D 01 A8 1A 0E 

[2019-11-04 12:10:11.434]# RECV HEX>
05 03 00 00 00 0E C5 8A 05 03 1C 00 B2 00 0C 00 FF 00 51 00 88 00 08 00 00 00 80 00 00 00 80 00 C1 00 FF 00 FF 00 28 80 7A 

[2019-11-04 12:10:11.512]# RECV HEX>
00 06 00 B6 00 01 A8 3D 00 06 00 B6 00 01 A8 3D 01 06 00 66 00 00 69 D5 

[2019-11-04 12:10:11.637]# RECV HEX>
01 06 00 66 00 00 69 D5 

[2019-11-04 12:10:11.762]# RECV HEX>
01 06 00 66 00 00 69 D5 

[2019-11-04 12:10:11.996]# RECV HEX>
02 06 00 66 00 00 69 E6 02 06 00 66 00 00 69 E6 03 06 00 66 00 00 68 37 03 06 00 66 00 00 68 37 04 06 00 66 00 00 69 80 04 06 00 66 00 00 69 80 01 06 00 56 00 00 69 DA 

[2019-11-04 12:10:12.120]# RECV HEX>
01 06 00 56 00 00 69 DA 

[2019-11-04 12:10:12.245]# RECV HEX>
01 06 00 56 00 00 69 DA 

[2019-11-04 12:10:12.495]# RECV HEX>
02 06 00 56 00 00 69 E9 02 06 00 56 00 00 69 E9 03 06 00 56 00 00 68 38 03 06 00 56 00 00 68 38 04 06 00 56 00 00 69 8F 04 06 00 56 00 00 69 8F 01 03 00 5F 00 01 B4 18 

[2019-11-04 12:10:12.620]# RECV HEX>
01 03 00 5F 00 01 B4 18 

[2019-11-04 12:10:12.744]# RECV HEX>
01 03 00 5F 00 01 B4 18 

[2019-11-04 12:10:13.103]# RECV HEX>
02 03 00 5F 00 01 B4 2B 02 03 02 00 00 FC 44 03 03 00 5F 00 01 B5 FA 03 03 02 00 00 C1 84 04 03 00 5F 00 01 B4 4D 04 03 02 00 00 74 44 06 03 00 02 00 04 E4 7E 06 03 08 00 FA 01 AA 03 16 01 8F 6D D1 05 03 00 00 00 0E C5 8A 05 03 1C 00 B1 00 0C 00 FF 00 51 00 88 00 08 00 00 00 80 00 00 00 80 00 C1 00 FF 00 FF 00 28 81 BD 

[2019-11-04 12:10:13.181]# RECV HEX>
00 06 00 B6 00 01 A8 3D 00 06 00 B6 00 01 A8 3D 01 06 00 66 00 00 69 D5 

[2019-11-04 12:10:13.306]# RECV HEX>
01 06 00 66 00 00 69 D5 

[2019-11-04 12:10:13.415]# RECV HEX>
01 06 00 66 00 00 69 D5 

[2019-11-04 12:10:13.649]# RECV HEX>
02 06 00 66 00 00 69 E6 02 06 00 66 00 00 69 E6 03 06 00 66 00 00 68 37 03 06 00 66 00 00 68 37 04 06 00 66 00 00 69 80 04 06 00 66 00 00 69 80 01 06 00 56 00 00 69 DA 

[2019-11-04 12:10:13.774]# RECV HEX>
01 06 00 56 00 00 69 DA 

[2019-11-04 12:10:13.899]# RECV HEX>
01 06 00 56 00 00 69 DA 

[2019-11-04 12:10:14.148]# RECV HEX>
02 06 00 56 00 00 69 E9 02 06 00 56 00 00 69 E9 03 06 00 56 00 00 68 38 03 06 00 56 00 00 68 38 04 06 00 56 00 00 69 8F 04 06 00 56 00 00 69 8F 01 03 00 5F 00 01 B4 18 

[2019-11-04 12:10:14.273]# RECV HEX>
01 03 00 5F 00 01 B4 18 

[2019-11-04 12:10:14.398]# RECV HEX>
01 03 00 5F 00 01 B4 18 

[2019-11-04 12:10:14.757]# RECV HEX>
02 03 00 5F 00 01 B4 2B 02 03 02 00 00 FC 44 03 03 00 5F 00 01 B5 FA 03 03 02 00 00 C1 84 04 03 00 5F 00 01 B4 4D 04 03 02 00 00 74 44 06 03 00 02 00 04 E4 7E 06 03 08 00 F5 01 B8 03 15 01 92 1A DB 05 03 00 00 00 0E C5 8A 05 03 1C 00 B0 00 0C 00 FF 00 51 00 88 00 08 00 00 00 80 00 00 00 80 00 C1 00 FF 00 FF 00 28 7F 3F 

[2019-11-04 12:10:14.835]# RECV HEX>
00 06 00 B6 00 01 A8 3D 00 06 00 B6 00 01 A8 3D 01 06 00 66 00 00 69 D5 

[2019-11-04 12:10:14.960]# RECV HEX>
01 06 00 66 00 00 69 D5 

[2019-11-04 12:10:15.084]# RECV HEX>
01 06 00 66 00 00 69 D5 

[2019-11-04 12:10:15.318]# RECV HEX>
02 06 00 66 00 00 69 E6 02 06 00 66 00 00 69 E6 03 06 00 66 00 00 68 37 03 06 00 66 00 00 68 37 04 06 00 66 00 00 69 80 04 06 00 66 00 00 69 80 01 06 00 56 00 00 69 DA 

[2019-11-04 12:10:15.443]# RECV HEX>
01 06 00 56 00 00 69 DA 

[2019-11-04 12:10:15.568]# RECV HEX>
01 06 00 56 00 00 69 DA 

[2019-11-04 12:10:15.771]# RECV HEX>
02 06 00 56 00 00 69 E9 02 06 00 56 00 00 69 E9 03 06 00 56 00 00 68 38 03 06 00 56 00 00 68 38 04 06 00 56 00 00 69 8F 04 06 00 56 00 00 69 8F 

[2019-11-04 12:10:15.818]# RECV HEX>
01 03 00 5F 00 01 B4 18 

[2019-11-04 12:10:15.942]# RECV HEX>
01 03 00 5F 00 01 B4 18 

[2019-11-04 12:10:16.067]# RECV HEX>
01 03 00 5F 00 01 B4 18 

[2019-11-04 12:10:16.410]# RECV HEX>
02 03 00 5F 00 01 B4 2B 02 03 02 00 00 FC 44 03 03 00 5F 00 01 B5 FA 03 03 02 00 00 C1 84 04 03 00 5F 00 01 B4 4D 04 03 02 00 00 74 44 06 03 00 02 00 04 E4 7E 06 03 08 00 FF 01 B7 03 14 01 A8 35 09 05 03 00 00 00 0E C5 8A 05 03 1C 00 AF 00 0C 00 FF 00 51 00 88 00 08 00 00 00 80 00 00 00 80 00 C1 00 FF 00 FF 00 28 81 8B 

[2019-11-04 12:10:16.488]# RECV HEX>
00 06 00 B6 00 01 A8 3D 00 06 00 B6 00 01 A8 3D 01 06 00 66 00 00 69 D5 

[2019-11-04 12:10:16.613]# RECV HEX>
01 06 00 66 00 00 69 D5 

[2019-11-04 12:10:16.722]# RECV HEX>
01 06 00 66 00 00 69 D5 

[2019-11-04 12:10:16.972]# RECV HEX>
02 06 00 66 00 00 69 E6 02 06 00 66 00 00 69 E6 03 06 00 66 00 00 68 37 03 06 00 66 00 00 68 37 04 06 00 66 00 00 69 80 04 06 00 66 00 00 69 80 01 06 00 56 00 00 69 DA 

[2019-11-04 12:10:17.097]# RECV HEX>
01 06 00 56 00 00 69 DA 

[2019-11-04 12:10:17.222]# RECV HEX>
01 06 00 56 00 00 69 DA 

[2019-11-04 12:10:17.456]# RECV HEX>
02 06 00 56 00 00 69 E9 02 06 00 56 00 00 69 E9 03 06 00 56 00 00 68 38 03 06 00 56 00 00 68 38 04 06 00 56 00 00 69 8F 04 06 00 56 00 00 69 8F 01 03 00 5F 00 01 B4 18 

[2019-11-04 12:10:17.596]# RECV HEX>
01 03 00 5F 00 01 B4 18 

[2019-11-04 12:10:17.721]# RECV HEX>
01 03 00 5F 00 01 B4 18 

[2019-11-04 12:10:17.986]# RECV HEX>
02 03 00 5F 00 01 B4 2B 02 03 02 00 00 FC 44 03 03 00 5F 00 01 B5 FA 03 03 02 00 00 C1 84 04 03 00 5F 00 01 B4 4D 04 03 02 00 00 74 44 06 03 00 02 00 04 E4 7E 06 03 08 00 F9 01 BB 02 FF 01 A3 73 07 

[2019-11-04 12:10:18.064]# RECV HEX>
05 03 00 00 00 0E C5 8A 05 03 1C 00 AE 00 0C 00 FF 00 51 00 88 00 08 00 00 00 80 00 00 00 80 00 C1 00 FF 00 FF 00 29 BE C9 

[2019-11-04 12:10:18.142]# RECV HEX>
00 06 00 B6 00 01 A8 3D 00 06 00 B6 00 01 A8 3D 01 06 00 66 00 00 69 D5 

[2019-11-04 12:10:18.267]# RECV HEX>
01 06 00 66 00 00 69 D5 

[2019-11-04 12:10:18.392]# RECV HEX>
01 06 00 66 00 00 69 D5 

[2019-11-04 12:10:18.626]# RECV HEX>
02 06 00 66 00 00 69 E6 02 06 00 66 00 00 69 E6 03 06 00 66 00 00 68 37 03 06 00 66 00 00 68 37 04 06 00 66 00 00 69 80 04 06 00 66 00 00 69 80 01 06 00 56 00 00 69 DA 

[2019-11-04 12:10:18.750]# RECV HEX>
01 06 00 56 00 00 69 DA 

[2019-11-04 12:10:18.891]# RECV HEX>
01 06 00 56 00 00 69 DA 

[2019-11-04 12:10:19.125]# RECV HEX>
02 06 00 56 00 00 69 E9 02 06 00 56 00 00 69 E9 03 06 00 56 00 00 68 38 03 06 00 56 00 00 68 38 04 06 00 56 00 00 69 8F 04 06 00 56 00 00 69 8F 01 03 00 5F 00 01 B4 18 

[2019-11-04 12:10:19.250]# RECV HEX>
01 03 00 5F 00 01 B4 18 

[2019-11-04 12:10:19.390]# RECV HEX>
01 03 00 5F 00 01 B4 18 

[2019-11-04 12:10:19.733]# RECV HEX>
02 03 00 5F 00 01 B4 2B 02 03 02 00 00 FC 44 03 03 00 5F 00 01 B5 FA 03 03 02 00 00 C1 84 04 03 00 5F 00 01 B4 4D 04 03 02 00 00 74 44 06 03 00 02 00 04 E4 7E 06 03 08 00 F4 01 D2 03 08 01 B2 83 CC 05 03 00 00 00 0E C5 8A 05 03 1C 00 AD 00 0C 00 FF 00 51 00 88 00 08 00 00 00 80 00 00 00 80 00 C1 00 FF 00 FF 00 29 BF 0E 

[2019-11-04 12:10:19.811]# RECV HEX>
00 06 00 B6 00 01 A8 3D 00 06 00 B6 00 01 A8 3D 01 06 00 66 00 00 69 D5 

[2019-11-04 12:10:19.936]# RECV HEX>
01 06 00 66 00 00 69 D5 

[2019-11-04 12:10:20.061]# RECV HEX>
01 06 00 66 00 00 69 D5 

[2019-11-04 12:10:20.295]# RECV HEX>
02 06 00 66 00 00 69 E6 02 06 00 66 00 00 69 E6 03 06 00 66 00 00 68 37 03 06 00 66 00 00 68 37 04 06 00 66 00 00 69 80 04 06 00 66 00 00 69 80 01 06 00 56 00 00 69 DA 

[2019-11-04 12:10:20.420]# RECV HEX>
01 06 00 56 00 00 69 DA 

[2019-11-04 12:10:20.544]# RECV HEX>
01 06 00 56 00 00 69 DA 

[2019-11-04 12:10:20.747]# RECV HEX>
02 06 00 56 00 00 69 E9 02 06 00 56 00 00 69 E9 03 06 00 56 00 00 68 38 03 06 00 56 00 00 68 38 04 06 00 56 00 00 69 8F 04 06 00 56 00 00 69 8F 

[2019-11-04 12:10:20.794]# RECV HEX>
01 03 00 5F 00 01 B4 18 

[2019-11-04 12:10:20.919]# RECV HEX>
01 03 00 5F 00 01 B4 18 

[2019-11-04 12:10:21.044]# RECV HEX>
01 03 00 5F 00 01 B4 18 

[2019-11-04 12:10:21.309]# RECV HEX>
02 03 00 5F 00 01 B4 2B 02 03 02 00 00 FC 44 03 03 00 5F 00 01 B5 FA 03 03 02 00 00 C1 84 04 03 00 5F 00 01 B4 4D 04 03 02 00 00 74 44 06 03 00 02 00 04 E4 7E 06 03 08 00 F9 01 B9 03 0E 01 9C 1A D8 

[2019-11-04 12:10:21.387]# RECV HEX>
05 03 00 00 00 0E C5 8A 05 03 1C 00 AC 00 0C 00 FF 00 51 00 88 00 08 00 00 00 80 00 00 00 80 00 C1 00 FF 00 FF 00 28 80 4C 

[2019-11-04 12:10:21.465]# RECV HEX>
00 06 00 B6 00 01 A8 3D 00 06 00 B6 00 01 A8 3D 01 06 00 66 00 00 69 D5 

[2019-11-04 12:10:21.590]# RECV HEX>
01 06 00 66 00 00 69 D5 

[2019-11-04 12:10:21.714]# RECV HEX>
01 06 00 66 00 00 69 D5 

[2019-11-04 12:10:21.870]# RECV HEX>
02 06 00 66 00 00 69 E6 02 06 00 66 00 00 69 E6 03 06 00 66 00 00 68 37 03 06 00 66 00 00 68 37 

[2019-11-04 12:10:21.948]# RECV HEX>
04 06 00 66 00 00 69 80 04 06 00 66 00 00 69 80 01 06 00 56 00 00 69 DA 

[2019-11-04 12:10:22.073]# RECV HEX>
01 06 00 56 00 00 69 DA 

[2019-11-04 12:10:22.198]# RECV HEX>
01 06 00 56 00 00 69 DA 

[2019-11-04 12:10:22.448]# RECV HEX>
02 06 00 56 00 00 69 E9 02 06 00 56 00 00 69 E9 03 06 00 56 00 00 68 38 03 06 00 56 00 00 68 38 04 06 00 56 00 00 69 8F 04 06 00 56 00 00 69 8F 01 03 00 5F 00 01 B4 18 

[2019-11-04 12:10:22.572]# RECV HEX>
01 03 00 5F 00 01 B4 18 

[2019-11-04 12:10:22.697]# RECV HEX>
01 03 00 5F 00 01 B4 18 

[2019-11-04 12:10:23.056]# RECV HEX>
02 03 00 5F 00 01 B4 2B 02 03 02 00 00 FC 44 03 03 00 5F 00 01 B5 FA 03 03 02 00 00 C1 84 04 03 00 5F 00 01 B4 4D 04 03 02 00 00 74 44 06 03 00 02 00 04 E4 7E 06 03 08 00 F6 01 B2 03 0E 01 8D 80 15 05 03 00 00 00 0E C5 8A 05 03 1C 00 AB 00 0C 00 FF 00 51 00 88 00 08 00 00 00 80 00 00 00 80 00 C1 00 FF 00 FF 00 28 7F 00 

[2019-11-04 12:10:23.134]# RECV HEX>
00 06 00 B6 00 01 A8 3D 00 06 00 B6 00 01 A8 3D 01 06 00 66 00 00 69 D5 

[2019-11-04 12:10:23.259]# RECV HEX>
01 06 00 66 00 00 69 D5 00 

[2019-11-04 12:10:23.368]# RECV HEX>
01 06 00 66 00 00 69 D5 

[2019-11-04 12:10:23.602]# RECV HEX>
02 06 00 66 00 00 69 E6 02 06 00 66 00 00 69 E6 03 06 00 66 00 00 68 37 03 06 00 66 00 00 68 37 04 06 00 66 00 00 69 80 04 06 00 66 00 00 69 80 01 06 00 56 00 00 69 DA 

[2019-11-04 12:10:23.727]# RECV HEX>
01 06 00 56 00 00 69 DA 

[2019-11-04 12:10:23.852]# RECV HEX>
01 06 00 56 00 00 69 DA 

[2019-11-04 12:10:24.101]# RECV HEX>
02 06 00 56 00 00 69 E9 02 06 00 56 00 00 69 E9 03 06 00 56 00 00 68 38 03 06 00 56 00 00 68 38 04 06 00 56 00 00 69 8F 04 06 00 56 00 00 69 8F 01 03 00 5F 00 01 B4 18 

[2019-11-04 12:10:24.226]# RECV HEX>
01 03 00 5F 00 01 B4 18 

[2019-11-04 12:10:24.351]# RECV HEX>
01 03 00 5F 00 01 B4 18 

[2019-11-04 12:10:24.710]# RECV HEX>
02 03 00 5F 00 01 B4 2B 02 03 02 00 00 FC 44 03 03 00 5F 00 01 B5 FA 03 03 02 00 00 C1 84 04 03 00 5F 00 01 B4 4D 04 03 02 00 00 74 44 06 03 00 02 00 04 E4 7E 06 03 08 00 FB 01 B4 03 12 01 9D 14 DF 05 03 00 00 00 0E C5 8A 05 03 1C 00 AA 00 0C 00 FF 00 51 00 88 00 08 00 00 00 80 00 00 00 80 00 C1 00 FF 00 FF 00 28 81 82 

[2019-11-04 12:10:24.788]# RECV HEX>
00 06 00 B6 00 01 A8 3D 00 06 00 B6 00 01 A8 3D 01 06 00 66 00 00 69 D5 

[2019-11-04 12:10:24.897]# RECV HEX>
01 06 00 66 00 00 69 D5 

[2019-11-04 12:10:25.022]# RECV HEX>
01 06 00 66 00 00 69 D5 

[2019-11-04 12:10:25.256]# RECV HEX>
02 06 00 66 00 00 69 E6 02 06 00 66 00 00 69 E6 03 06 00 66 00 00 68 37 03 06 00 66 00 00 68 37 04 06 00 66 00 00 69 80 04 06 00 66 00 00 69 80 01 06 00 56 00 00 69 DA 

[2019-11-04 12:10:25.380]# RECV HEX>
01 06 00 56 00 00 69 DA 

[2019-11-04 12:10:25.505]# RECV HEX>
01 06 00 56 00 00 69 DA 

[2019-11-04 12:10:25.755]# RECV HEX>
02 06 00 56 00 00 69 E9 02 06 00 56 00 00 69 E9 03 06 00 56 00 00 68 38 03 06 00 56 00 00 68 38 04 06 00 56 00 00 69 8F 04 06 00 56 00 00 69 8F 01 03 00 5F 00 01 B4 18 

[2019-11-04 12:10:25.880]# RECV HEX>
01 03 00 5F 00 01 B4 18 

[2019-11-04 12:10:26.004]# RECV HEX>
01 03 00 5F 00 01 B4 18 

[2019-11-04 12:10:26.363]# RECV HEX>
02 03 00 5F 00 01 B4 2B 02 03 02 00 00 FC 44 03 03 00 5F 00 01 B5 FA 03 03 02 00 00 C1 84 04 03 00 5F 00 01 B4 4D 04 03 02 00 00 74 44 06 03 00 02 00 04 E4 7E 06 03 08 00 F7 01 C1 03 0E 01 A2 D4 C2 05 03 00 00 00 0E C5 8A 05 03 1C 00 A9 00 0C 00 FF 00 51 00 88 00 08 00 00 00 80 00 00 00 80 00 C1 00 FF 00 FF 00 27 C0 41 

[2019-11-04 12:10:26.441]# RECV HEX>
00 06 00 B6 00 01 A8 3D 00 06 00 B6 00 01 A8 3D 01 06 00 66 00 00 69 D5 

[2019-11-04 12:10:26.550]# RECV HEX>
01 06 00 66 00 00 69 D5 

[2019-11-04 12:10:26.675]# RECV HEX>
01 06 00 66 00 00 69 D5 

[2019-11-04 12:10:26.909]# RECV HEX>
02 06 00 66 00 00 69 E6 02 06 00 66 00 00 69 E6 03 06 00 66 00 00 68 37 03 06 00 66 00 00 68 37 04 06 00 66 00 00 69 80 04 06 00 66 00 00 69 80 01 06 00 56 00 00 69 DA 

[2019-11-04 12:10:27.034]# RECV HEX>
01 06 00 56 00 00 69 DA 

[2019-11-04 12:10:27.159]# RECV HEX>
01 06 00 56 00 00 69 DA 

[2019-11-04 12:10:27.408]# RECV HEX>
02 06 00 56 00 00 69 E9 02 06 00 56 00 00 69 E9 03 06 00 56 00 00 68 38 03 06 00 56 00 00 68 38 04 06 00 56 00 00 69 8F 04 06 00 56 00 00 69 8F 01 03 00 5F 00 01 B4 18 

[2019-11-04 12:10:27.533]# RECV HEX>
01 03 00 5F 00 01 B4 18 

[2019-11-04 12:10:27.658]# RECV HEX>
01 03 00 5F 00 01 B4 18 

[2019-11-04 12:10:28.017]# RECV HEX>
02 03 00 5F 00 01 B4 2B 02 03 02 00 00 FC 44 03 03 00 5F 00 01 B5 FA 03 03 02 00 00 C1 84 04 03 00 5F 00 01 B4 4D 04 03 02 00 00 74 44 06 03 00 02 00 04 E4 7E 06 03 08 00 FC 01 BB 03 09 01 A6 07 CA 05 03 00 00 00 0E C5 8A 05 03 1C 00 A8 00 0C 00 FF 00 51 00 88 00 08 00 00 00 80 00 00 00 80 00 C1 00 FF 00 FF 00 28 7E C7 

[2019-11-04 12:10:28.079]# RECV HEX>
00 06 00 B6 00 01 A8 3D 00 06 00 B6 00 01 A8 3D 01 06 00 66 00 00 69 D5 

[2019-11-04 12:10:28.204]# RECV HEX>
01 06 00 66 00 00 69 D5 

[2019-11-04 12:10:28.329]# RECV HEX>
01 06 00 66 00 00 69 D5 

[2019-11-04 12:10:28.563]# RECV HEX>
02 06 00 66 00 00 69 E6 02 06 00 66 00 00 69 E6 03 06 00 66 00 00 68 37 03 06 00 66 00 00 68 37 04 06 00 66 00 00 69 80 04 06 00 66 00 00 69 80 01 06 00 56 00 00 69 DA 

[2019-11-04 12:10:28.688]# RECV HEX>
01 06 00 56 00 00 69 DA 

[2019-11-04 12:10:28.812]# RECV HEX>
01 06 00 56 00 00 69 DA 

[2019-11-04 12:10:29.062]# RECV HEX>
02 06 00 56 00 00 69 E9 02 06 00 56 00 00 69 E9 03 06 00 56 00 00 68 38 03 06 00 56 00 00 68 38 04 06 00 56 00 00 69 8F 04 06 00 56 00 00 69 8F 01 03 00 5F 00 01 B4 18 

[2019-11-04 12:10:29.187]# RECV HEX>
01 03 00 5F 00 01 B4 18 

[2019-11-04 12:10:29.312]# RECV HEX>
01 03 00 5F 00 01 B4 18 

[2019-11-04 12:10:29.577]# RECV HEX>
02 03 00 5F 00 01 B4 2B 02 03 02 00 00 FC 44 03 03 00 5F 00 01 B5 FA 03 03 02 00 00 C1 84 04 03 00 5F 00 01 B4 4D 04 03 02 00 00 74 44 06 03 00 02 00 04 E4 7E 06 03 08 00 FF 01 CA 03 06 01 A1 39 00 

[2019-11-04 12:10:29.670]# RECV HEX>
05 03 00 00 00 0E C5 8A 05 03 1C 00 A7 00 0C 00 FF 00 51 00 88 00 08 00 00 00 80 00 00 00 80 00 C1 00 FF 00 FF 00 28 7E DC 

[2019-11-04 12:10:29.733]# RECV HEX>
00 06 00 B6 00 01 A8 3D 00 06 00 B6 00 01 A8 3D 01 06 00 66 00 00 69 D5 

[2019-11-04 12:10:29.858]# RECV HEX>
01 06 00 66 00 00 69 D5 

[2019-11-04 12:10:29.982]# RECV HEX>
01 06 00 66 00 00 69 D5 

[2019-11-04 12:10:30.216]# RECV HEX>
02 06 00 66 00 00 69 E6 02 06 00 66 00 00 69 E6 03 06 00 66 00 00 68 37 03 06 00 66 00 00 68 37 04 06 00 66 00 00 69 80 04 06 00 66 00 00 69 80 01 06 00 56 00 00 69 DA 

[2019-11-04 12:10:30.341]# RECV HEX>
01 06 00 56 00 00 69 DA 

[2019-11-04 12:10:30.466]# RECV HEX>
01 06 00 56 00 00 69 DA 

[2019-11-04 12:10:30.716]# RECV HEX>
02 06 00 56 00 00 69 E9 02 06 00 56 00 00 69 E9 03 06 00 56 00 00 68 38 03 06 00 56 00 00 68 38 04 06 00 56 00 00 69 8F 04 06 00 56 00 00 69 8F 01 03 00 5F 00 01 B4 18 

[2019-11-04 12:10:30.840]# RECV HEX>
01 03 00 5F 00 01 B4 18 

[2019-11-04 12:10:30.965]# RECV HEX>
01 03 00 5F 00 01 B4 18 

[2019-11-04 12:10:31.324]# RECV HEX>
02 03 00 5F 00 01 B4 2B 02 03 02 00 00 FC 44 03 03 00 5F 00 01 B5 FA 03 03 02 00 00 C1 84 04 03 00 5F 00 01 B4 4D 04 03 02 00 00 74 44 06 03 00 02 00 04 E4 7E 06 03 08 00 FC 01 D0 03 10 01 9C 73 D7 05 03 00 00 00 0E C5 8A 05 03 1C 00 A6 00 0C 00 FF 00 51 00 88 00 08 00 00 00 80 00 00 00 80 00 C1 00 FF 00 FF 00 28 80 5E 

[2019-11-04 12:10:31.386]# RECV HEX>
00 06 00 B6 00 01 A8 3D 00 06 00 B6 00 01 A8 3D 01 06 00 66 00 00 69 D5 

[2019-11-04 12:10:31.511]# RECV HEX>
01 06 00 66 00 00 69 D5 

[2019-11-04 12:10:31.636]# RECV HEX>
01 06 00 66 00 00 69 D5 

[2019-11-04 12:10:31.870]# RECV HEX>
02 06 00 66 00 00 69 E6 02 06 00 66 00 00 69 E6 03 06 00 66 00 00 68 37 03 06 00 66 00 00 68 37 04 06 00 66 00 00 69 80 04 06 00 66 00 00 69 80 01 06 00 56 00 00 69 DA 

[2019-11-04 12:10:31.995]# RECV HEX>
01 06 00 56 00 00 69 DA 

[2019-11-04 12:10:32.120]# RECV HEX>
01 06 00 56 00 00 69 DA 

[2019-11-04 12:10:32.322]# RECV HEX>
02 06 00 56 00 00 69 E9 02 06 00 56 00 00 69 E9 03 06 00 56 00 00 68 38 03 06 00 56 00 00 68 38 04 06 00 56 00 00 69 8F 04 06 00 56 00 00 69 8F 

[2019-11-04 12:10:32.369]# RECV HEX>
01 03 00 5F 00 01 B4 18 

[2019-11-04 12:10:32.494]# RECV HEX>
01 03 00 5F 00 01 B4 18 

[2019-11-04 12:10:32.619]# RECV HEX>
01 03 00 5F 00 01 B4 18 

[2019-11-04 12:10:32.744]# RECV HEX>
02 03 00 5F 00 01 B4 2B 02 03 02 00 00 FC 44 

[2019-11-04 12:10:32.962]# RECV HEX>
03 03 00 5F 00 01 B5 FA 03 03 02 00 00 C1 84 04 03 00 5F 00 01 B4 4D 04 03 02 00 00 74 44 06 03 00 02 00 04 E4 7E 06 03 08 00 F8 01 D8 03 18 01 9B 17 D6 05 03 00 00 00 0E C5 8A 05 03 1C 00 A5 00 0C 00 FF 00 51 00 88 00 08 00 00 00 80 00 00 00 80 00 C1 00 FF 00 FF 00 28 81 99 

[2019-11-04 12:10:33.040]# RECV HEX>
00 06 00 B6 00 01 A8 3D 00 06 00 B6 00 01 A8 3D 01 06 00 66 00 00 69 D5 

[2019-11-04 12:10:33.165]# RECV HEX>
