
[2019-11-14 10:36:28.990]# SEND HEX>
03 06 00 56 0B B8 6F 7A 

[2019-11-14 10:36:29.049]# RECV HEX>
FF FF FF FF FF FF FF FF FF FF FF FF FF FF FF FF FF FF FF FF 03 06 00 56 0B B8 6F 7A 

[2019-11-14 10:36:48.157]# SEND HEX>
03 06 00 B6 00 01 A8 0E 

[2019-11-14 10:36:48.217]# RECV HEX>
03 06 00 B6 00 01 A8 0E 

[2019-11-14 10:37:05.170]# SEND HEX>
03 06 00 66 00 02 E9 F6 

[2019-11-14 10:37:05.236]# RECV HEX>
03 06 00 66 00 02 E9 F6 

[2019-11-14 10:37:37.067]# SEND HEX>
06 03 00 04 00 01 C4 7C 

[2019-11-14 10:37:37.141]# RECV HEX>
06 03 02 1F 03 45 B5 

[2019-11-14 10:37:37.174]# SEND HEX>
06 03 00 04 00 01 C4 7C 

[2019-11-14 10:37:37.258]# RECV HEX>
FF FF FF FF FF FF FF FF FF FF FF FF FF FF 06 03 02 1F 03 45 B5 

[2019-11-14 10:37:37.297]# SEND HEX>
06 03 00 04 00 01 C4 7C 

[2019-11-14 10:37:37.357]# RECV HEX>
FF FF FF FF FF FF FF FF FF FF FF FF FF FF 06 03 02 1E E6 85 AE 

[2019-11-14 10:37:37.407]# SEND HEX>
06 03 00 04 00 01 C4 7C 

[2019-11-14 10:37:37.491]# RECV HEX>
06 03 02 1E E6 85 AE 

[2019-11-14 10:37:37.508]# SEND HEX>
06 03 00 04 00 01 C4 7C 

[2019-11-14 10:37:37.591]# RECV HEX>
06 60 02 1E E6 85 AE 

[2019-11-14 10:37:37.618]# SEND HEX>
06 03 00 04 00 01 C4 7C 

[2019-11-14 10:37:37.692]# RECV HEX>
06 60 02 1E AF 44 58 

[2019-11-14 10:37:37.740]# SEND HEX>
06 03 00 04 00 01 C4 7C 

[2019-11-14 10:37:37.800]# RECV HEX>
06 60 02 1E AF 44 58 

[2019-11-14 10:37:37.840]# SEND HEX>
06 03 00 04 00 01 C4 7C 

[2019-11-14 10:37:37.925]# RECV HEX>
06 03 02 1E AF 44 58 

[2019-11-14 10:37:37.952]# SEND HEX>
06 03 00 04 00 01 C4 7C 

[2019-11-14 10:37:38.024]# RECV HEX>
06 03 02 1F 1F 44 7C 

[2019-11-14 10:37:38.056]# SEND HEX>
06 03 00 04 00 01 C4 7C 

[2019-11-14 10:37:38.123]# RECV HEX>
06 03 02 1F 1F 44 7C 

[2019-11-14 10:37:38.172]# SEND HEX>
06 03 00 04 00 01 C4 7C 

[2019-11-14 10:37:38.257]# RECV HEX>
06 03 02 1F 1F 44 7C 

[2019-11-14 10:37:38.289]# SEND HEX>
06 03 00 04 00 01 C4 7C 

[2019-11-14 10:37:38.357]# RECV HEX>
06 03 02 1F 8B 45 D3 

[2019-11-14 10:37:38.406]# SEND HEX>
06 03 00 04 00 01 C4 7C 

[2019-11-14 10:37:38.441]# RECV HEX>
FF FF FF FF FF FF FF FF FF FF FF FF FF FF 06 03 02 1F 8B 45 D3 

[2019-11-14 10:37:38.507]# SEND HEX>
06 03 00 04 00 01 C4 7C 

[2019-11-14 10:37:38.573]# RECV HEX>
FF FF FF FF FF FF FF FF FF FF FF FF FF FF 06 03 02 20 13 55 89 

[2019-11-14 10:37:38.623]# SEND HEX>
06 03 00 04 00 01 C4 7C 

[2019-11-14 10:37:38.707]# RECV HEX>
FF FF FF FF FF FF FF FF FF FF FF FF FF FF 06 03 02 20 13 55 89 

[2019-11-14 10:37:38.723]# SEND HEX>
06 03 00 04 00 01 C4 7C 

[2019-11-14 10:37:38.807]# RECV HEX>
FF FF FF FF FF FF FF FF FF FF FF FF FF FF 06 03 02 20 13 55 89 

[2019-11-14 10:37:38.839]# SEND HEX>
06 03 00 04 00 01 C4 7C 

[2019-11-14 10:37:38.924]# RECV HEX>
FF FF FF FF FF FF FF FF FF FF FF FF FF FF 06 03 02 20 28 14 5A 

[2019-11-14 10:37:38.939]# SEND HEX>
06 03 00 04 00 01 C4 7C 

[2019-11-14 10:37:39.023]# RECV HEX>
06 03 02 20 28 14 5A 

[2019-11-14 10:37:39.055]# SEND HEX>
06 03 00 04 00 01 C4 7C 

[2019-11-14 10:37:39.124]# RECV HEX>
06 03 02 20 28 14 5A 

[2019-11-14 10:37:39.172]# SEND HEX>
06 03 00 04 00 01 C4 7C 

[2019-11-14 10:37:39.239]# RECV HEX>
06 03 02 20 A0 14 3C 

[2019-11-14 10:37:39.273]# SEND HEX>
06 03 00 04 00 01 C4 7C 

[2019-11-14 10:37:39.350]# RECV HEX>
06 03 02 20 A0 14 3C 

[2019-11-14 10:37:39.389]# SEND HEX>
06 03 00 04 00 01 C4 7C 

[2019-11-14 10:37:39.473]# RECV HEX>
06 03 02 20 A0 14 3C 

[2019-11-14 10:37:39.490]# SEND HEX>
06 03 00 04 00 01 C4 7C 

[2019-11-14 10:37:39.573]# RECV HEX>
06 03 02 21 4F 54 20 

[2019-11-14 10:37:39.603]# SEND HEX>
06 03 00 04 00 01 C4 7C 

[2019-11-14 10:37:39.672]# RECV HEX>
06 03 02 21 4F 54 20 

[2019-11-14 10:37:39.705]# SEND HEX>
06 03 00 04 00 01 C4 7C 

[2019-11-14 10:37:39.807]# RECV HEX>
06 03 02 21 F2 94 51 

[2019-11-14 10:37:39.834]# SEND HEX>
06 03 00 04 00 01 C4 7C 

[2019-11-14 10:37:39.905]# RECV HEX>
FF FF FF FF FF FF FF FF FF FF FF FF FF FF 06 03 02 21 F2 94 51 

[2019-11-14 10:37:39.940]# SEND HEX>
06 03 00 04 00 01 C4 7C 

[2019-11-14 10:37:40.022]# RECV HEX>
FF FF FF FF FF FF FF FF FF FF FF FF FF FF 06 03 02 21 F2 94 51 

[2019-11-14 10:37:40.071]# SEND HEX>
06 03 00 04 00 01 C4 7C 

[2019-11-14 10:37:40.139]# RECV HEX>
FF FF FF FF FF FF FF FF FF FF FF FF FF FF 06 03 02 22 34 14 F3 

[2019-11-14 10:37:40.171]# SEND HEX>
06 03 00 04 00 01 C4 7C 

[2019-11-14 10:37:40.238]# RECV HEX>
FF FF FF FF FF FF FF FF FF FF FF FF FF FF 06 03 02 22 34 14 F3 

[2019-11-14 10:37:40.272]# SEND HEX>
06 03 00 04 00 01 C4 7C 

[2019-11-14 10:37:40.339]# RECV HEX>
FF FF FF FF FF FF FF FF FF FF FF FF FF FF 06 03 02 22 34 14 F3 

[2019-11-14 10:37:40.387]# SEND HEX>
06 03 00 04 00 01 C4 7C 

[2019-11-14 10:37:40.455]# RECV HEX>
FF FF FF FF FF FF FF FF FF FF FF FF FF FF 06 03 02 22 05 D5 27 

[2019-11-14 10:37:40.504]# SEND HEX>
06 03 00 04 00 01 C4 7C 

[2019-11-14 10:37:40.571]# RECV HEX>
FF FF FF FF FF FF FF FF FF FF FF FF FF FF 06 03 02 22 05 D5 27 

[2019-11-14 10:37:40.621]# SEND HEX>
06 03 00 04 00 01 C4 7C 

[2019-11-14 10:37:40.705]# RECV HEX>
FF FF FF FF FF FF FF FF FF FF FF FF FF FF 06 03 02 22 05 D5 27 

[2019-11-14 10:37:40.720]# SEND HEX>
06 03 00 04 00 01 C4 7C 

[2019-11-14 10:37:40.805]# RECV HEX>
FF FF FF FF FF FF FF FF FF FF FF FF FF FF 06 03 02 21 EA 94 5B 

[2019-11-14 10:37:40.849]# SEND HEX>
06 03 00 04 00 01 C4 7C 

[2019-11-14 10:37:40.904]# RECV HEX>
FF FF FF FF FF FF FF FF FF FF FF FF FF FF 06 03 02 21 EA 94 5B 

[2019-11-14 10:37:40.954]# SEND HEX>
06 03 00 04 00 01 C4 7C 

[2019-11-14 10:37:41.021]# RECV HEX>
FF FF FF FF FF FF FF FF FF FF FF FF FF FF 06 03 02 21 69 D5 FA 

[2019-11-14 10:37:41.054]# SEND HEX>
06 03 00 04 00 01 C4 7C 

[2019-11-14 10:37:41.121]# RECV HEX>
06 03 02 21 69 D5 FA 

[2019-11-14 10:37:41.171]# SEND HEX>
06 03 00 04 00 01 C4 7C 

[2019-11-14 10:37:41.255]# RECV HEX>
06 03 02 21 69 D5 FA 

[2019-11-14 10:37:41.268]# SEND HEX>
06 03 00 04 00 01 C4 7C 

[2019-11-14 10:37:41.355]# RECV HEX>
06 03 02 21 3E 94 04 

[2019-11-14 10:37:41.402]# SEND HEX>
06 03 00 04 00 01 C4 7C 

[2019-11-14 10:37:41.472]# RECV HEX>
06 60 02 21 3E 94 04 

[2019-11-14 10:37:41.504]# SEND HEX>
06 03 00 04 00 01 C4 7C 

[2019-11-14 10:37:41.572]# RECV HEX>
06 03 02 21 3E 94 04 

[2019-11-14 10:37:41.620]# SEND HEX>
06 03 00 04 00 01 C4 7C 

[2019-11-14 10:37:41.687]# RECV HEX>
D0 02 1F F5 C5 F3 

[2019-11-14 10:37:41.720]# SEND HEX>
06 03 00 04 00 01 C4 7C 

[2019-11-14 10:37:41.804]# RECV HEX>
FF FF FF FF FF FF FF FF FF FF FF FF FF FF 06 03 02 1F F5 C5 F3 

[2019-11-14 10:37:41.836]# SEND HEX>
06 03 00 04 00 01 C4 7C 

[2019-11-14 10:37:41.904]# RECV HEX>
FF FF FF FF FF FF FF FF FF FF FF FF FF FF 06 03 02 1F F5 C5 F3 

[2019-11-14 10:37:41.953]# SEND HEX>
06 03 00 04 00 01 C4 7C 

[2019-11-14 10:37:41.987]# RECV HEX>
FF FF FF FF FF FF FF FF FF FF FF FF FF FF 06 03 02 20 49 D5 B2 

[2019-11-14 10:37:42.054]# SEND HEX>
06 03 00 04 00 01 C4 7C 

[2019-11-14 10:37:42.120]# RECV HEX>
06 03 02 20 49 D5 B2 

[2019-11-14 10:37:42.170]# SEND HEX>
06 03 00 04 00 01 C4 7C 

[2019-11-14 10:37:42.237]# RECV HEX>
06 03 02 20 9C 14 2D 

[2019-11-14 10:37:42.287]# SEND HEX>
06 03 00 04 00 01 C4 7C 

[2019-11-14 10:37:42.353]# RECV HEX>
FF FF FF FF FF FF FF FF FF FF FF FF FF FF 06 03 02 20 9C 14 2D 

[2019-11-14 10:37:42.382]# SEND HEX>
06 03 00 04 00 01 C4 7C 

[2019-11-14 10:37:42.454]# RECV HEX>
FF FF FF FF FF FF FF FF FF FF FF FF FF FF 06 03 02 20 9C 14 2D 

[2019-11-14 10:37:42.487]# SEND HEX>
06 03 00 04 00 01 C4 7C 

[2019-11-14 10:37:42.570]# RECV HEX>
FF FF FF FF FF FF FF FF FF FF FF FF FF FF 06 03 02 20 50 14 78 

[2019-11-14 10:37:42.601]# SEND HEX>
06 03 00 04 00 01 C4 7C 

[2019-11-14 10:37:42.669]# RECV HEX>
D0 02 20 50 14 78 

[2019-11-14 10:37:42.719]# SEND HEX>
06 03 00 04 00 01 C4 7C 

[2019-11-14 10:37:42.804]# RECV HEX>
06 03 02 20 50 14 78 

[2019-11-14 10:37:42.835]# SEND HEX>
06 03 00 04 00 01 C4 7C 

[2019-11-14 10:37:42.903]# RECV HEX>
06 03 02 20 85 D5 E7 

[2019-11-14 10:37:42.953]# SEND HEX>
06 03 00 04 00 01 C4 7C 

[2019-11-14 10:37:43.019]# RECV HEX>
FF FF FF FF FF FF FF FF FF FF FF FF FF FF 06 03 02 20 85 D5 E7 

[2019-11-14 10:37:43.053]# SEND HEX>
06 03 00 04 00 01 C4 7C 

[2019-11-14 10:37:43.119]# RECV HEX>
FF FF FF FF FF FF FF FF FF FF FF FF FF FF 06 03 02 20 85 D5 E7 

[2019-11-14 10:37:43.169]# SEND HEX>
06 03 00 04 00 01 C4 7C 

[2019-11-14 10:37:43.236]# RECV HEX>
FF FF FF FF FF FF FF FF FF FF FF FF FF FF 06 03 02 20 C6 94 16 

[2019-11-14 10:37:43.286]# SEND HEX>
06 03 00 04 00 01 C4 7C 

[2019-11-14 10:37:43.352]# RECV HEX>
06 03 02 20 C6 94 16 

[2019-11-14 10:37:43.385]# SEND HEX>
06 03 00 04 00 01 C4 7C 

[2019-11-14 10:37:43.452]# RECV HEX>
06 60 02 20 C6 94 16 

[2019-11-14 10:37:43.502]# SEND HEX>
06 03 00 04 00 01 C4 7C 

[2019-11-14 10:37:43.586]# RECV HEX>
06 03 02 1F CA 85 E3 

[2019-11-14 10:37:43.618]# SEND HEX>
06 03 00 04 00 01 C4 7C 

[2019-11-14 10:37:43.685]# RECV HEX>
FF FF FF FF FF FF FF FF FF FF FF FF FF FF 06 03 02 1F CA 85 E3 

[2019-11-14 10:37:43.735]# SEND HEX>
06 03 00 04 00 01 C4 7C 

[2019-11-14 10:37:43.802]# RECV HEX>
FF FF FF FF FF FF FF FF FF FF FF FF FF FF 06 03 02 20 51 D5 B8 

[2019-11-14 10:37:43.835]# SEND HEX>
06 03 00 04 00 01 C4 7C 

[2019-11-14 10:37:43.913]# RECV HEX>
06 03 02 20 51 D5 B8 

[2019-11-14 10:37:43.951]# SEND HEX>
06 03 00 04 00 01 C4 7C 

[2019-11-14 10:37:43.986]# RECV HEX>
D0 02 20 51 D5 B8 

[2019-11-14 10:37:44.053]# SEND HEX>
06 03 00 04 00 01 C4 7C 

[2019-11-14 10:37:44.118]# RECV HEX>
06 03 02 20 58 15 BE 

[2019-11-14 10:37:44.168]# SEND HEX>
06 03 00 04 00 01 C4 7C 

[2019-11-14 10:37:44.252]# RECV HEX>
06 60 02 20 58 15 BE 

[2019-11-14 10:37:44.281]# SEND HEX>
06 03 00 04 00 01 C4 7C 

[2019-11-14 10:37:44.351]# RECV HEX>
06 03 02 20 58 15 BE 

[2019-11-14 10:37:44.384]# SEND HEX>
06 03 00 04 00 01 C4 7C 

[2019-11-14 10:37:44.451]# RECV HEX>
06 03 02 1F 8A 84 13 

[2019-11-14 10:37:44.500]# SEND HEX>
06 03 00 04 00 01 C4 7C 

[2019-11-14 10:37:44.568]# RECV HEX>
FF FF FF FF FF FF FF FF FF FF FF FF FF FF 06 03 02 1F 8A 84 13 

[2019-11-14 10:37:44.595]# SEND HEX>
06 03 00 04 00 01 C4 7C 

[2019-11-14 10:37:44.685]# RECV HEX>
FF FF FF FF FF FF FF FF FF FF FF FF FF FF 06 03 02 1F 8A 84 13 

[2019-11-14 10:37:44.710]# SEND HEX>
06 03 00 04 00 01 C4 7C 

[2019-11-14 10:37:44.785]# RECV HEX>
FF FF FF FF FF FF FF FF FF FF FF FF FF FF 06 03 02 1F A1 C4 0C 

[2019-11-14 10:37:44.818]# SEND HEX>
06 03 00 04 00 01 C4 7C 

[2019-11-14 10:37:44.884]# RECV HEX>
06 03 02 1F A1 C4 0C 

[2019-11-14 10:37:44.947]# SEND HEX>
06 03 00 04 00 01 C4 7C 

[2019-11-14 10:37:44.984]# RECV HEX>
06 03 02 1F A1 C4 0C 

[2019-11-14 10:37:45.052]# SEND HEX>
06 03 00 04 00 01 C4 7C 

[2019-11-14 10:37:45.117]# RECV HEX>
06 03 02 1F 4C 04 41 

[2019-11-14 10:37:45.167]# SEND HEX>
06 03 00 04 00 01 C4 7C 

[2019-11-14 10:37:45.235]# RECV HEX>
FF FF FF FF FF FF FF FF FF FF FF FF FF FF 06 03 02 1F 4C 04 41 

[2019-11-14 10:37:45.283]# SEND HEX>
06 03 00 04 00 01 C4 7C 

[2019-11-14 10:37:45.350]# RECV HEX>
FF FF FF FF FF FF FF FF FF FF FF FF FF FF 06 03 02 1E F0 04 60 

[2019-11-14 10:37:45.384]# SEND HEX>
06 03 00 04 00 01 C4 7C 

[2019-11-14 10:37:45.450]# RECV HEX>
06 03 02 1E F0 04 60 

[2019-11-14 10:37:45.500]# SEND HEX>
06 03 00 04 00 01 C4 7C 

[2019-11-14 10:37:45.584]# RECV HEX>
D0 02 1E F0 04 60 

[2019-11-14 10:37:45.596]# SEND HEX>
06 03 00 04 00 01 C4 7C 

[2019-11-14 10:37:45.684]# RECV HEX>
06 03 02 1E E9 C5 AA 

[2019-11-14 10:37:45.713]# SEND HEX>
06 03 00 04 00 01 C4 7C 

[2019-11-14 10:37:45.783]# RECV HEX>
06 03 02 1E E9 C5 AA 

[2019-11-14 10:37:45.817]# SEND HEX>
06 03 00 04 00 01 C4 7C 

[2019-11-14 10:37:45.883]# RECV HEX>
06 03 02 1E E9 C5 AA 

[2019-11-14 10:37:45.946]# SEND HEX>
06 03 00 04 00 01 C4 7C 

[2019-11-14 10:37:45.983]# RECV HEX>
06 03 02 1F 1C 04 7D 

[2019-11-14 10:37:46.049]# SEND HEX>
06 03 00 04 00 01 C4 7C 

[2019-11-14 10:37:46.116]# RECV HEX>
FF FF FF FF FF FF FF FF FF FF FF FF FF FF 06 03 02 1F 1C 04 7D 

[2019-11-14 10:37:46.166]# SEND HEX>
06 03 00 04 00 01 C4 7C 

[2019-11-14 10:37:46.233]# RECV HEX>
FF FF FF FF FF FF FF FF FF FF FF FF FF FF 06 03 02 1F 44 05 87 

[2019-11-14 10:37:46.283]# SEND HEX>
06 03 00 04 00 01 C4 7C 

[2019-11-14 10:37:46.350]# RECV HEX>
FF FF FF FF FF FF FF FF FF FF FF FF FF FF 06 03 02 1F 44 05 87 

[2019-11-14 10:37:46.383]# SEND HEX>
06 03 00 04 00 01 C4 7C 

[2019-11-14 10:37:46.450]# RECV HEX>
FF FF FF FF FF FF FF FF FF FF FF FF FF FF 06 03 02 1F 44 05 87 

[2019-11-14 10:37:46.498]# SEND HEX>
06 03 00 04 00 01 C4 7C 

[2019-11-14 10:37:46.566]# RECV HEX>
FF FF FF FF FF FF FF FF FF FF FF FF FF FF 06 03 02 1E 56 84 1A 

[2019-11-14 10:37:46.599]# SEND HEX>
06 03 00 04 00 01 C4 7C 

[2019-11-14 10:37:46.683]# RECV HEX>
06 03 02 1E 56 84 1A 

[2019-11-14 10:37:46.715]# SEND HEX>
06 03 00 04 00 01 C4 7C 

[2019-11-14 10:37:46.783]# RECV HEX>
06 03 02 1E 56 84 1A 

[2019-11-14 10:37:46.816]# SEND HEX>
06 03 00 04 00 01 C4 7C 

[2019-11-14 10:37:46.900]# RECV HEX>
06 03 02 1E 7D C4 05 

[2019-11-14 10:37:46.932]# SEND HEX>
06 03 00 04 00 01 C4 7C 

[2019-11-14 10:37:46.999]# RECV HEX>
FF FF FF FF FF FF FF FF FF FF FF FF FF FF 06 03 02 1E 7D C4 05 

[2019-11-14 10:37:47.049]# SEND HEX>
06 03 00 04 00 01 C4 7C 

[2019-11-14 10:37:47.116]# RECV HEX>
FF FF FF FF FF FF FF FF FF FF FF FF FF FF 06 03 02 1E 7D C4 05 

[2019-11-14 10:37:47.148]# SEND HEX>
06 03 00 04 00 01 C4 7C 

[2019-11-14 10:37:47.216]# RECV HEX>
FF FF FF FF FF FF FF FF FF FF FF FF FF FF 06 03 02 1E 9F 44 4C 

[2019-11-14 10:37:47.265]# SEND HEX>
06 03 00 04 00 01 C4 7C 

[2019-11-14 10:37:47.349]# RECV HEX>
06 03 02 1E 9F 44 4C 

[2019-11-14 10:37:47.382]# SEND HEX>
06 03 00 04 00 01 C4 7C 

[2019-11-14 10:37:47.449]# RECV HEX>
06 03 02 1E 9F 44 4C 

[2019-11-14 10:37:47.497]# SEND HEX>
06 03 00 04 00 01 C4 7C 

[2019-11-14 10:37:47.532]# RECV HEX>
06 03 02 1E AF 44 58 

[2019-11-14 10:37:47.600]# SEND HEX>
06 03 00 04 00 01 C4 7C 

[2019-11-14 10:37:47.683]# RECV HEX>
06 03 02 1E AF 44 58 

[2019-11-14 10:37:47.714]# SEND HEX>
06 03 00 04 00 01 C4 7C 

[2019-11-14 10:37:47.782]# RECV HEX>
06 03 02 1E 9B 45 8F 

[2019-11-14 10:37:47.831]# SEND HEX>
06 03 00 04 00 01 C4 7C 

[2019-11-14 10:37:47.898]# RECV HEX>
FF FF FF FF FF FF FF FF FF FF FF FF FF FF 06 03 02 1E 9B 45 8F 

[2019-11-14 10:37:47.961]# SEND HEX>
06 03 00 04 00 01 C4 7C 

[2019-11-14 10:37:47.998]# RECV HEX>
FF FF FF FF FF FF FF FF FF FF FF FF FF FF 06 03 02 1E 9B 45 8F 

[2019-11-14 10:37:48.064]# SEND HEX>
06 03 00 04 00 01 C4 7C 

[2019-11-14 10:37:48.131]# RECV HEX>
FF FF FF FF FF FF FF FF FF FF FF FF FF FF 06 03 02 1E 36 84 32 

[2019-11-14 10:37:48.164]# SEND HEX>
06 03 00 04 00 01 C4 7C 

[2019-11-14 10:37:48.231]# RECV HEX>
D0 02 1E 36 84 32 

[2019-11-14 10:37:48.281]# SEND HEX>
06 03 00 04 00 01 C4 7C 

[2019-11-14 10:37:48.365]# RECV HEX>
06 03 02 1E 36 84 32 

[2019-11-14 10:37:48.377]# SEND HEX>
06 03 00 04 00 01 C4 7C 

[2019-11-14 10:37:48.464]# RECV HEX>
06 03 02 1D AD C5 69 

[2019-11-14 10:37:48.513]# SEND HEX>
06 03 00 04 00 01 C4 7C 

[2019-11-14 10:37:48.581]# RECV HEX>
FF FF FF FF FF FF FF FF FF FF FF FF FF FF 06 03 02 1D AD C5 69 

[2019-11-14 10:37:48.630]# SEND HEX>
06 03 00 04 00 01 C4 7C 

[2019-11-14 10:37:48.665]# RECV HEX>
FF FF FF FF FF FF FF FF FF FF FF FF FF FF 06 03 02 1D 9A 84 BF 

[2019-11-14 10:37:48.730]# SEND HEX>
06 03 00 04 00 01 C4 7C 

[2019-11-14 10:37:48.797]# RECV HEX>
FF FF FF FF FF FF FF FF FF FF FF FF FF FF 06 03 02 1D 9A 84 BF 

[2019-11-14 10:37:48.846]# SEND HEX>
06 03 00 04 00 01 C4 7C 

[2019-11-14 10:37:48.881]# RECV HEX>
FF FF FF FF FF FF FF FF FF FF FF FF FF FF 06 03 02 1D 9A 84 BF 

[2019-11-14 10:37:48.959]# SEND HEX>
06 03 00 04 00 01 C4 7C 

[2019-11-14 10:37:49.014]# RECV HEX>
FF FF FF FF FF FF FF FF FF FF FF FF FF FF 06 03 02 1E 13 45 E9 

[2019-11-14 10:37:49.064]# SEND HEX>
06 03 00 04 00 01 C4 7C 

[2019-11-14 10:37:49.130]# RECV HEX>
FF FF FF FF FF FF FF FF FF FF FF FF FF FF 06 03 02 1E 13 45 E9 

[2019-11-14 10:37:49.179]# SEND HEX>
06 03 00 04 00 01 C4 7C 

[2019-11-14 10:37:49.215]# RECV HEX>
FF FF FF FF FF FF FF FF FF FF FF FF FF FF 06 03 02 1E 13 45 E9 

[2019-11-14 10:37:49.280]# SEND HEX>
06 03 00 04 00 01 C4 7C 

[2019-11-14 10:37:49.364]# RECV HEX>
FF FF FF FF FF FF FF FF FF FF FF FF FF FF 06 03 02 1D 8A 85 73 

[2019-11-14 10:37:49.380]# SEND HEX>
06 03 00 04 00 01 C4 7C 

[2019-11-14 10:37:49.464]# RECV HEX>
FF FF FF FF FF FF FF FF FF FF FF FF FF FF 06 03 02 1D 8A 85 73 

[2019-11-14 10:37:49.512]# SEND HEX>
06 03 00 04 00 01 C4 7C 

[2019-11-14 10:37:49.580]# RECV HEX>
FF FF FF FF FF FF FF FF FF FF FF FF FF FF 06 03 02 1D 8A 85 73 

[2019-11-14 10:37:49.630]# SEND HEX>
06 03 00 04 00 01 C4 7C 

[2019-11-14 10:37:49.663]# RECV HEX>
FF FF FF FF FF FF FF FF FF FF FF FF FF FF 06 03 02 1C F2 84 C1 

[2019-11-14 10:37:49.729]# SEND HEX>
06 03 00 04 00 01 C4 7C 

[2019-11-14 10:37:49.797]# RECV HEX>
FF FF FF FF FF FF FF FF FF FF FF FF FF FF 06 03 02 1C F2 84 C1 

[2019-11-14 10:37:49.830]# SEND HEX>
06 03 00 04 00 01 C4 7C 

[2019-11-14 10:37:49.914]# RECV HEX>
FF FF FF FF FF FF FF FF FF FF FF FF FF FF 06 03 02 1D 21 C4 CC 

[2019-11-14 10:37:49.943]# SEND HEX>
06 03 00 04 00 01 C4 7C 

[2019-11-14 10:37:50.013]# RECV HEX>
06 03 02 1D 21 C4 CC 

[2019-11-14 10:37:50.063]# SEND HEX>
06 03 00 04 00 01 C4 7C 

[2019-11-14 10:37:50.147]# RECV HEX>
06 03 02 1D 21 C4 CC 

[2019-11-14 10:37:50.179]# SEND HEX>
06 03 00 04 00 01 C4 7C 

[2019-11-14 10:37:50.246]# RECV HEX>
06 03 02 1D C1 C5 44 

[2019-11-14 10:37:50.296]# SEND HEX>
06 03 00 04 00 01 C4 7C 

[2019-11-14 10:37:50.380]# RECV HEX>
06 03 02 1D C1 C5 44 

[2019-11-14 10:37:50.409]# SEND HEX>
06 03 00 04 00 01 C4 7C 

[2019-11-14 10:37:50.475]# RECV HEX>
06 03 02 1D C1 C5 44 

[2019-11-14 10:37:50.511]# SEND HEX>
06 03 00 04 00 01 C4 7C 

[2019-11-14 10:37:50.579]# RECV HEX>
06 03 02 1C F4 04 C3 

[2019-11-14 10:37:50.629]# SEND HEX>
06 03 00 04 00 01 C4 7C 

[2019-11-14 10:37:50.662]# RECV HEX>
FF FF FF FF FF FF FF FF FF FF FF FF FF FF 06 03 02 1C F4 04 C3 

[2019-11-14 10:37:50.728]# SEND HEX>
06 03 00 04 00 01 C4 7C 

[2019-11-14 10:37:50.796]# RECV HEX>
FF FF FF FF FF FF FF FF FF FF FF FF FF FF 06 03 02 1C F4 04 C3 

[2019-11-14 10:37:50.845]# SEND HEX>
06 03 00 04 00 01 C4 7C 

[2019-11-14 10:37:50.912]# RECV HEX>
FF FF FF FF FF FF FF FF FF FF FF FF FF FF 06 03 02 1D 81 C4 B4 

[2019-11-14 10:37:50.945]# SEND HEX>
06 03 00 04 00 01 C4 7C 

[2019-11-14 10:37:51.012]# RECV HEX>
06 03 02 1D 81 C4 B4 

[2019-11-14 10:37:51.062]# SEND HEX>
06 03 00 04 00 01 C4 7C 

[2019-11-14 10:37:51.129]# RECV HEX>
06 03 02 1D 81 C4 B4 

[2019-11-14 10:37:51.162]# SEND HEX>
06 03 00 04 00 01 C4 7C 

[2019-11-14 10:37:51.246]# RECV HEX>
D0 02 1D 0B 45 13 

[2019-11-14 10:37:51.270]# SEND HEX>
06 03 00 04 00 01 C4 7C 

[2019-11-14 10:37:51.346]# RECV HEX>
FF FF FF FF FF FF FF FF FF FF FF FF FF FF 06 03 02 1D 0B 45 13 

[2019-11-14 10:37:51.378]# SEND HEX>
06 03 00 04 00 01 C4 7C 

[2019-11-14 10:37:51.445]# RECV HEX>
FF FF FF FF FF FF FF FF FF FF FF FF FF FF 06 03 02 1D E6 85 5E 

[2019-11-14 10:37:51.507]# SEND HEX>
06 03 00 04 00 01 C4 7C 

[2019-11-14 10:37:51.546]# RECV HEX>
06 03 02 1D E6 85 5E 

[2019-11-14 10:37:51.611]# SEND HEX>
06 03 00 04 00 01 C4 7C 

[2019-11-14 10:37:51.695]# RECV HEX>
06 03 02 1D E6 85 5E 

[2019-11-14 10:37:51.725]# SEND HEX>
06 03 00 04 00 01 C4 7C 

[2019-11-14 10:37:51.795]# RECV HEX>
06 03 02 1D C4 05 47 

[2019-11-14 10:37:51.845]# SEND HEX>
06 03 00 04 00 01 C4 7C 

[2019-11-14 10:37:51.911]# RECV HEX>
FF FF FF FF FF FF FF FF FF FF FF FF FF FF 06 03 02 1D C4 05 47 

[2019-11-14 10:37:51.961]# SEND HEX>
06 03 00 04 00 01 C4 7C 

[2019-11-14 10:37:52.028]# RECV HEX>
FF FF FF FF FF FF FF FF FF FF FF FF FF FF 06 03 02 1D C4 05 47 

[2019-11-14 10:37:52.060]# SEND HEX>
06 03 00 04 00 01 C4 7C 

[2019-11-14 10:37:52.128]# RECV HEX>
FF FF FF FF FF FF FF FF FF FF FF FF FF FF 06 03 02 1D AC 04 A9 

[2019-11-14 10:37:52.161]# SEND HEX>
06 03 00 04 00 01 C4 7C 

[2019-11-14 10:37:52.228]# RECV HEX>
FF FF FF FF FF FF FF FF FF FF FF FF FF FF 06 03 02 1D AC 04 A9 

[2019-11-14 10:37:52.278]# SEND HEX>
06 03 00 04 00 01 C4 7C 

[2019-11-14 10:37:52.344]# RECV HEX>
FF FF FF FF FF FF FF FF FF FF FF FF FF FF 06 03 02 1D AC 04 A9 

[2019-11-14 10:37:52.394]# SEND HEX>
06 03 00 04 00 01 C4 7C 

[2019-11-14 10:37:52.461]# RECV HEX>
FF FF FF FF FF FF FF FF FF FF FF FF FF FF 06 03 02 1D 33 44 C1 

[2019-11-14 10:37:52.526]# SEND HEX>
06 03 00 04 00 01 C4 7C 

[2019-11-14 10:37:52.595]# RECV HEX>
FF FF FF FF FF FF FF FF FF FF FF FF FF FF 06 03 02 1D 33 44 C1 

[2019-11-14 10:37:52.644]# SEND HEX>
06 03 00 04 00 01 C4 7C 

[2019-11-14 10:37:52.711]# RECV HEX>
FF FF FF FF FF FF FF FF FF FF FF FF FF FF 06 03 02 1E 32 85 F1 

[2019-11-14 10:37:52.743]# SEND HEX>
06 03 00 04 00 01 C4 7C 

[2019-11-14 10:37:52.811]# RECV HEX>
FF FF FF FF FF FF FF FF FF FF FF FF FF FF 06 03 02 1E 32 85 F1 

[2019-11-14 10:37:52.860]# SEND HEX>
06 03 00 04 00 01 C4 7C 

[2019-11-14 10:37:52.927]# RECV HEX>
FF FF FF FF FF FF FF FF FF FF FF FF FF FF 06 03 02 1E 32 85 F1 

[2019-11-14 10:37:52.977]# SEND HEX>
06 03 00 04 00 01 C4 7C 

[2019-11-14 10:37:53.010]# RECV HEX>
FF FF FF FF FF FF FF FF FF FF FF FF FF FF 06 03 02 1D CF 44 80 

[2019-11-14 10:37:53.077]# SEND HEX>
06 03 00 04 00 01 C4 7C 

[2019-11-14 10:37:53.161]# RECV HEX>
06 03 02 1D CF 44 80 

[2019-11-14 10:37:53.178]# SEND HEX>
06 03 00 04 00 01 C4 7C 

[2019-11-14 10:37:53.261]# RECV HEX>
06 03 02 1D CF 44 80 

[2019-11-14 10:37:53.290]# SEND HEX>
06 03 00 04 00 01 C4 7C 

[2019-11-14 10:37:53.360]# RECV HEX>
06 03 02 1E 2B 44 3B 

[2019-11-14 10:37:53.410]# SEND HEX>
06 03 00 04 00 01 C4 7C 

[2019-11-14 10:37:53.477]# RECV HEX>
FF FF FF FF FF FF FF FF FF FF FF FF FF FF 06 03 02 1E 2B 44 3B 

[2019-11-14 10:37:53.542]# SEND HEX>
06 03 00 04 00 01 C4 7C 

[2019-11-14 10:37:53.610]# RECV HEX>
FF FF FF FF FF FF FF FF FF FF FF FF FF FF 06 03 02 1E FE 85 A4 

[2019-11-14 10:37:53.643]# SEND HEX>
06 03 00 04 00 01 C4 7C 

[2019-11-14 10:37:53.727]# RECV HEX>
06 03 02 1E FE 85 A4 

[2019-11-14 10:37:53.759]# SEND HEX>
06 03 00 04 00 01 C4 7C 

[2019-11-14 10:37:53.827]# RECV HEX>
06 03 02 1E FE 85 A4 

[2019-11-14 10:37:53.876]# SEND HEX>
06 03 00 04 00 01 C4 7C 

[2019-11-14 10:37:53.960]# RECV HEX>
06 03 02 1F 3B 44 67 

[2019-11-14 10:37:53.992]# SEND HEX>
06 03 00 04 00 01 C4 7C 

[2019-11-14 10:37:54.060]# RECV HEX>
FF FF FF FF FF FF FF FF FF FF FF FF FF FF 06 03 02 1F 3B 44 67 

[2019-11-14 10:37:54.109]# SEND HEX>
06 03 00 04 00 01 C4 7C 

[2019-11-14 10:37:54.176]# RECV HEX>
FF FF FF FF FF FF FF FF FF FF FF FF FF FF 06 03 02 1F 3B 44 67 

[2019-11-14 10:37:54.225]# SEND HEX>
06 03 00 04 00 01 C4 7C 

[2019-11-14 10:37:54.259]# RECV HEX>
FF FF FF FF FF FF FF FF FF FF FF FF FF FF 06 03 02 1F B8 05 C6 

[2019-11-14 10:37:54.327]# SEND HEX>
06 03 00 04 00 01 C4 7C 

[2019-11-14 10:37:54.410]# RECV HEX>
D0 02 1F B8 05 C6 

[2019-11-14 10:37:54.425]# SEND HEX>
06 03 00 04 00 01 C4 7C 

[2019-11-14 10:37:54.510]# RECV HEX>
06 03 02 1F B8 05 C6 

[2019-11-14 10:37:54.557]# SEND HEX>
06 03 00 04 00 01 C4 7C 

[2019-11-14 10:37:54.626]# RECV HEX>
D0 02 1F 9B 44 1F 

[2019-11-14 10:37:54.660]# SEND HEX>
06 03 00 04 00 01 C4 7C 

[2019-11-14 10:37:54.726]# RECV HEX>
FF FF FF FF FF FF FF FF FF FF FF FF FF FF 06 03 02 1F 9B 44 1F 

[2019-11-14 10:37:54.776]# SEND HEX>
06 03 00 04 00 01 C4 7C 

[2019-11-14 10:37:54.842]# RECV HEX>
FF FF FF FF FF FF FF FF FF FF FF FF FF FF 06 03 02 1F C5 C5 E7 

[2019-11-14 10:37:54.892]# SEND HEX>
06 03 00 04 00 01 C4 7C 

[2019-11-14 10:37:54.959]# RECV HEX>
FF FF FF FF FF FF FF FF FF FF FF FF FF FF 06 03 02 1F C5 C5 E7 

[2019-11-14 10:37:55.023]# SEND HEX>
06 03 00 04 00 01 C4 7C 

[2019-11-14 10:37:55.059]# RECV HEX>
FF FF FF FF FF FF FF FF FF FF FF FF FF FF 06 03 02 1F C5 C5 E7 

[2019-11-14 10:37:55.108]# SEND HEX>
06 03 00 04 00 01 C4 7C 

[2019-11-14 10:37:55.144]# RECV HEX>
FF FF FF FF FF FF FF FF FF FF FF FF FF FF 06 03 02 1F A9 C5 CA 

[2019-11-14 10:37:55.210]# SEND HEX>
06 03 00 04 00 01 C4 7C 

[2019-11-14 10:37:55.275]# RECV HEX>
06 03 02 1F A9 C5 CA 

[2019-11-14 10:37:55.325]# SEND HEX>
06 03 00 04 00 01 C4 7C 

[2019-11-14 10:37:55.392]# RECV HEX>
06 03 02 1F A9 C5 CA 

[2019-11-14 10:37:55.441]# SEND HEX>
06 03 00 04 00 01 C4 7C 

[2019-11-14 10:37:55.520]# RECV HEX>
06 03 02 1F 8C 04 11 

[2019-11-14 10:37:55.574]# SEND HEX>
06 03 00 04 00 01 C4 7C 

[2019-11-14 10:37:55.609]# RECV HEX>
FF FF FF FF FF FF FF FF FF FF FF FF FF FF 06 03 02 1F 8C 04 11 

[2019-11-14 10:37:55.689]# SEND HEX>
06 03 00 04 00 01 C4 7C 

[2019-11-14 10:37:55.725]# RECV HEX>
FF FF FF FF FF FF FF FF FF FF FF FF FF FF 06 03 02 1F 24 05 AF 

[2019-11-14 10:37:55.803]# SEND HEX>
06 03 00 04 00 01 C4 7C 

[2019-11-14 10:37:55.858]# RECV HEX>
FF FF FF FF FF FF FF FF FF FF FF FF FF FF 06 03 02 1F 24 05 AF 

[2019-11-14 10:37:55.908]# SEND HEX>
06 03 00 04 00 01 C4 7C 

[2019-11-14 10:37:55.975]# RECV HEX>
FF FF FF FF FF FF FF FF FF FF FF FF FF FF 06 03 02 1F 24 05 AF 

[2019-11-14 10:37:56.037]# SEND HEX>
06 03 00 04 00 01 C4 7C 

[2019-11-14 10:37:56.074]# RECV HEX>
FF FF FF FF FF FF FF FF FF FF FF FF FF FF 06 03 02 1F 0A 85 B3 

[2019-11-14 10:37:56.124]# SEND HEX>
06 03 00 04 00 01 C4 7C 

[2019-11-14 10:37:56.208]# RECV HEX>
FF FF FF FF FF FF FF FF FF FF FF FF FF FF 06 03 02 1F 0A 85 B3 

[2019-11-14 10:37:56.220]# SEND HEX>
06 03 00 04 00 01 C4 7C 

[2019-11-14 10:37:56.308]# RECV HEX>
FF FF FF FF FF FF FF FF FF FF FF FF FF FF 06 03 02 1F 0A 85 B3 

[2019-11-14 10:37:56.333]# SEND HEX>
06 03 00 04 00 01 C4 7C 

[2019-11-14 10:37:56.408]# RECV HEX>
FF FF FF FF FF FF FF FF FF FF FF FF FF FF 06 03 02 1E DA 85 BF 

[2019-11-14 10:37:56.457]# SEND HEX>
06 03 00 04 00 01 C4 7C 

[2019-11-14 10:37:56.524]# RECV HEX>
FF FF FF FF FF FF FF FF FF FF FF FF FF FF 06 03 02 1E DA 85 BF 

[2019-11-14 10:37:56.573]# SEND HEX>
06 03 00 04 00 01 C4 7C 

[2019-11-14 10:37:56.659]# RECV HEX>
FF FF FF FF FF FF FF FF FF FF FF FF FF FF 06 03 02 1E DA 85 BF 

[2019-11-14 10:37:56.674]# SEND HEX>
06 03 00 04 00 01 C4 7C 

[2019-11-14 10:37:56.758]# RECV HEX>
FF FF FF FF FF FF FF FF FF FF FF FF FF FF 06 03 02 1E 85 C5 87 

[2019-11-14 10:37:56.783]# SEND HEX>
06 03 00 04 00 01 C4 7C 

[2019-11-14 10:37:56.858]# RECV HEX>
FF FF FF FF FF FF FF FF FF FF FF FF FF FF 06 03 02 1E 85 C5 87 

[2019-11-14 10:37:56.907]# SEND HEX>
06 03 00 04 00 01 C4 7C 

[2019-11-14 10:37:56.974]# RECV HEX>
FF FF FF FF FF FF FF FF FF FF FF FF FF FF 06 03 02 1E 93 44 49 

[2019-11-14 10:37:57.024]# SEND HEX>
06 03 00 04 00 01 C4 7C 

[2019-11-14 10:37:57.090]# RECV HEX>
FF FF FF FF FF FF FF FF FF FF FF FF FF FF 06 03 02 1E 93 44 49 

[2019-11-14 10:37:57.123]# SEND HEX>
06 03 00 04 00 01 C4 7C 

[2019-11-14 10:37:57.190]# RECV HEX>
FF FF FF FF FF FF FF FF FF FF FF FF FF FF 06 03 02 1E 93 44 49 

[2019-11-14 10:37:57.223]# SEND HEX>
06 03 00 04 00 01 C4 7C 

[2019-11-14 10:37:57.290]# RECV HEX>
FF FF FF FF FF FF FF FF FF FF FF FF FF FF 06 03 02 1E AF 44 58 

[2019-11-14 10:37:57.340]# SEND HEX>
06 03 00 04 00 01 C4 7C 

[2019-11-14 10:37:57.407]# RECV HEX>
06 03 02 1E AF 44 58 

[2019-11-14 10:37:57.456]# SEND HEX>
06 03 00 04 00 01 C4 7C 

[2019-11-14 10:37:57.540]# RECV HEX>
06 03 02 1E AF 44 58 

[2019-11-14 10:37:57.569]# SEND HEX>
06 03 00 04 00 01 C4 7C 

[2019-11-14 10:37:57.640]# RECV HEX>
D0 02 1E A0 04 5C 

[2019-11-14 10:37:57.690]# SEND HEX>
06 03 00 04 00 01 C4 7C 

[2019-11-14 10:37:57.756]# RECV HEX>
06 03 02 1E A0 04 5C 

[2019-11-14 10:37:57.791]# SEND HEX>
06 03 00 04 00 01 C4 7C 

[2019-11-14 10:37:57.873]# RECV HEX>
06 03 02 1E A0 04 5C 

[2019-11-14 10:37:57.905]# SEND HEX>
06 03 00 04 00 01 C4 7C 

[2019-11-14 10:37:57.973]# RECV HEX>
D0 02 1F 22 85 AD 

[2019-11-14 10:37:58.023]# SEND HEX>
06 03 00 04 00 01 C4 7C 

[2019-11-14 10:37:58.089]# RECV HEX>
FF FF FF FF FF FF FF FF FF FF FF FF FF FF 06 03 02 1F 22 85 AD 

[2019-11-14 10:37:58.122]# SEND HEX>
06 03 00 04 00 01 C4 7C 

[2019-11-14 10:37:58.189]# RECV HEX>
FF FF FF FF FF FF FF FF FF FF FF FF FF FF 06 03 02 1F 22 85 AD 

[2019-11-14 10:37:58.238]# SEND HEX>
06 03 00 04 00 01 C4 7C 

[2019-11-14 10:37:58.273]# RECV HEX>
FF FF FF FF FF FF FF FF FF FF FF FF FF FF 06 03 02 1F 08 04 72 

[2019-11-14 10:37:58.341]# SEND HEX>
06 03 00 04 00 01 C4 7C 

[2019-11-14 10:37:58.423]# RECV HEX>
06 03 02 1F 08 04 72 

[2019-11-14 10:37:58.452]# SEND HEX>
06 03 00 04 00 01 C4 7C 

[2019-11-14 10:37:58.522]# RECV HEX>
06 60 02 1E 4D C4 11 

[2019-11-14 10:37:58.555]# SEND HEX>
06 03 00 04 00 01 C4 7C 

[2019-11-14 10:37:58.622]# RECV HEX>
FF FF FF FF FF FF FF FF FF FF FF FF FF FF 06 03 02 1E 4D C4 11 

[2019-11-14 10:37:58.672]# SEND HEX>
06 03 00 04 00 01 C4 7C 

[2019-11-14 10:37:58.706]# RECV HEX>
FF FF FF FF FF FF FF FF FF FF FF FF FF FF 06 03 02 1E 4D C4 11 

[2019-11-14 10:37:58.772]# SEND HEX>
06 03 00 04 00 01 C4 7C 

[2019-11-14 10:37:58.839]# RECV HEX>
FF FF FF FF FF FF FF FF FF FF FF FF FF FF 06 03 02 1E 0A 84 23 

[2019-11-14 10:37:58.889]# SEND HEX>
06 03 00 04 00 01 C4 7C 

[2019-11-14 10:37:58.955]# RECV HEX>
FF FF FF FF FF FF FF FF FF FF FF FF FF FF 06 03 02 1E 0A 84 23 

[2019-11-14 10:37:59.005]# SEND HEX>
06 03 00 04 00 01 C4 7C 

[2019-11-14 10:37:59.073]# RECV HEX>
FF FF FF FF FF FF FF FF FF FF FF FF FF FF 06 03 02 1E 0A 84 23 

[2019-11-14 10:37:59.121]# SEND HEX>
06 03 00 04 00 01 C4 7C 

[2019-11-14 10:37:59.157]# RECV HEX>
FF FF FF FF FF FF FF FF FF FF FF FF FF FF 06 03 02 1E 01 C5 E4 

[2019-11-14 10:37:59.240]# SEND HEX>
06 03 00 04 00 01 C4 7C 

[2019-11-14 10:37:59.305]# RECV HEX>
06 03 02 1E 01 C5 E4 

[2019-11-14 10:37:59.355]# SEND HEX>
06 03 00 04 00 01 C4 7C 

[2019-11-14 10:37:59.439]# RECV HEX>
06 03 02 1E 81 C4 44 

[2019-11-14 10:37:59.471]# SEND HEX>
06 03 00 04 00 01 C4 7C 

[2019-11-14 10:37:59.538]# RECV HEX>
06 03 02 1E 81 C4 44 

[2019-11-14 10:37:59.570]# SEND HEX>
06 03 00 04 00 01 C4 7C 

[2019-11-14 10:37:59.638]# RECV HEX>
D0 02 1E 81 C4 44 

[2019-11-14 10:37:59.688]# SEND HEX>
06 03 00 04 00 01 C4 7C 

[2019-11-14 10:37:59.755]# RECV HEX>
06 03 02 1D C1 C5 44 

[2019-11-14 10:37:59.788]# SEND HEX>
06 03 00 04 00 01 C4 7C 

[2019-11-14 10:37:59.855]# RECV HEX>
06 03 02 1D C1 C5 44 

[2019-11-14 10:37:59.904]# SEND HEX>
06 03 00 04 00 01 C4 7C 

[2019-11-14 10:37:59.971]# RECV HEX>
06 03 02 1D C1 C5 44 

[2019-11-14 10:38:00.021]# SEND HEX>
06 03 00 04 00 01 C4 7C 

[2019-11-14 10:38:00.087]# RECV HEX>
06 03 02 1D 98 05 7E 

[2019-11-14 10:38:00.119]# SEND HEX>
06 03 00 04 00 01 C4 7C 

[2019-11-14 10:38:00.205]# RECV HEX>
06 03 02 1D 98 05 7E 

[2019-11-14 10:38:00.220]# SEND HEX>
06 03 00 04 00 01 C4 7C 

[2019-11-14 10:38:00.305]# RECV HEX>
06 03 02 1D 98 05 7E 

[2019-11-14 10:38:00.336]# SEND HEX>
06 03 00 04 00 01 C4 7C 

[2019-11-14 10:38:00.404]# RECV HEX>
06 03 02 1C FB 44 C7 

[2019-11-14 10:38:00.453]# SEND HEX>
06 03 00 04 00 01 C4 7C 

[2019-11-14 10:38:00.521]# RECV HEX>
FF FF FF FF FF FF FF FF FF FF FF FF FF FF 06 03 02 1C FB 44 C7 

[2019-11-14 10:38:00.570]# SEND HEX>
06 03 00 04 00 01 C4 7C 

[2019-11-14 10:38:00.604]# RECV HEX>
FF FF FF FF FF FF FF FF FF FF FF FF FF FF 06 03 02 1C FB 44 C7 

[2019-11-14 10:38:00.670]# SEND HEX>
06 03 00 04 00 01 C4 7C 

[2019-11-14 10:38:00.757]# RECV HEX>
FF FF FF FF FF FF FF FF FF FF FF FF FF FF 06 03 02 1D 78 04 F6 

[2019-11-14 10:38:00.787]# SEND HEX>
06 03 00 04 00 01 C4 7C 

[2019-11-14 10:38:00.854]# RECV HEX>
06 03 02 1D 78 04 F6 

[2019-11-14 10:38:00.903]# SEND HEX>
06 03 00 04 00 01 C4 7C 

[2019-11-14 10:38:00.987]# RECV HEX>
D0 02 1D 06 84 D6 

[2019-11-14 10:38:01.016]# SEND HEX>
06 03 00 04 00 01 C4 7C 

[2019-11-14 10:38:01.087]# RECV HEX>
06 03 02 1D 06 84 D6 

[2019-11-14 10:38:01.135]# SEND HEX>
06 03 00 04 00 01 C4 7C 

[2019-11-14 10:38:01.203]# RECV HEX>
D0 02 1D 06 84 D6 

[2019-11-14 10:38:01.237]# SEND HEX>
06 03 00 04 00 01 C4 7C 

[2019-11-14 10:38:01.319]# RECV HEX>
06 03 02 1D 4E 84 E0 

[2019-11-14 10:38:01.351]# SEND HEX>
06 03 00 04 00 01 C4 7C 

[2019-11-14 10:38:01.420]# RECV HEX>
06 03 02 1D 4E 84 E0 

[2019-11-14 10:38:01.470]# SEND HEX>
06 03 00 04 00 01 C4 7C 

[2019-11-14 10:38:01.553]# RECV HEX>
06 03 02 1D 4E 84 E0 

[2019-11-14 10:38:01.585]# SEND HEX>
06 03 00 04 00 01 C4 7C 

[2019-11-14 10:38:01.652]# RECV HEX>
06 03 02 1D FC 04 95 

[2019-11-14 10:38:01.702]# SEND HEX>
06 03 00 04 00 01 C4 7C 

[2019-11-14 10:38:01.788]# RECV HEX>
FF FF FF FF FF FF FF FF FF FF FF FF FF FF 06 03 02 1D FC 04 95 

[2019-11-14 10:38:01.818]# SEND HEX>
06 03 00 04 00 01 C4 7C 

[2019-11-14 10:38:01.886]# RECV HEX>
FF FF FF FF FF FF FF FF FF FF FF FF FF FF 06 03 02 1E 28 04 3A 

[2019-11-14 10:38:01.936]# SEND HEX>
06 03 00 04 00 01 C4 7C 

[2019-11-14 10:38:02.021]# RECV HEX>
06 03 02 1E 28 04 3A 

[2019-11-14 10:38:02.036]# SEND HEX>
06 03 00 04 00 01 C4 7C 

[2019-11-14 10:38:02.120]# RECV HEX>
06 03 02 1E 28 04 3A 

[2019-11-14 10:38:02.167]# SEND HEX>
06 03 00 04 00 01 C4 7C 

[2019-11-14 10:38:02.204]# RECV HEX>
06 03 02 1D AB 45 6B 

[2019-11-14 10:38:02.297]# SEND HEX>
06 03 00 04 00 01 C4 7C 

[2019-11-14 10:38:02.336]# RECV HEX>
FF FF FF FF FF FF FF FF FF FF FF FF FF FF 06 03 02 1D AB 45 6B 

[2019-11-14 10:38:02.402]# SEND HEX>
06 03 00 04 00 01 C4 7C 

[2019-11-14 10:38:02.486]# RECV HEX>
FF FF FF FF FF FF FF FF FF FF FF FF FF FF 06 03 02 1D AB 45 6B 

[2019-11-14 10:38:02.511]# SEND HEX>
06 03 00 04 00 01 C4 7C 

[2019-11-14 10:38:02.586]# RECV HEX>
FF FF FF FF FF FF FF FF FF FF FF FF FF FF 06 03 02 1D 78 04 F6 

[2019-11-14 10:38:02.618]# SEND HEX>
06 03 00 04 00 01 C4 7C 

[2019-11-14 10:38:02.685]# RECV HEX>
D0 02 1D 78 04 F6 

[2019-11-14 10:38:02.735]# SEND HEX>
06 03 00 04 00 01 C4 7C 

[2019-11-14 10:38:02.819]# RECV HEX>
06 03 02 1D C3 44 85 

[2019-11-14 10:38:02.868]# SEND HEX>
06 03 00 04 00 01 C4 7C 

[2019-11-14 10:38:02.937]# RECV HEX>
FF FF FF FF FF FF FF FF FF FF FF FF FF FF 06 03 02 1D C3 44 85 

[2019-11-14 10:38:02.968]# SEND HEX>
06 03 00 04 00 01 C4 7C 

[2019-11-14 10:38:03.052]# RECV HEX>
FF FF FF FF FF FF FF FF FF FF FF FF FF FF 06 03 02 1D C3 44 85 

[2019-11-14 10:38:03.064]# SEND HEX>
06 03 00 04 00 01 C4 7C 

[2019-11-14 10:38:03.153]# RECV HEX>
FF FF FF FF FF FF FF FF FF FF FF FF FF FF 06 03 02 1D 24 04 CF 

[2019-11-14 10:38:03.201]# SEND HEX>
06 03 00 04 00 01 C4 7C 

[2019-11-14 10:38:03.268]# RECV HEX>
FF FF FF FF FF FF FF FF FF FF FF FF FF FF 06 03 02 1D 24 04 CF 

[2019-11-14 10:38:03.317]# SEND HEX>
06 03 00 04 00 01 C4 7C 

[2019-11-14 10:38:03.351]# RECV HEX>
FF FF FF FF FF FF FF FF FF FF FF FF FF FF 06 03 02 1D 24 04 CF 

[2019-11-14 10:38:03.417]# SEND HEX>
06 03 00 04 00 01 C4 7C 

[2019-11-14 10:38:03.502]# RECV HEX>
FF FF FF FF FF FF FF FF FF FF FF FF FF FF 06 03 02 1C D7 45 1A 

[2019-11-14 10:38:03.531]# SEND HEX>
06 03 00 04 00 01 C4 7C 

[2019-11-14 10:38:03.602]# RECV HEX>
06 60 02 1C D7 45 1A 

[2019-11-14 10:38:03.634]# SEND HEX>
06 03 00 04 00 01 C4 7C 

[2019-11-14 10:38:03.701]# RECV HEX>
06 03 02 1C D7 45 1A 

[2019-11-14 10:38:03.751]# SEND HEX>
06 03 00 04 00 01 C4 7C 

[2019-11-14 10:38:03.835]# RECV HEX>
06 03 02 1C C9 C5 12 

[2019-11-14 10:38:03.867]# SEND HEX>
06 03 00 04 00 01 C4 7C 

[2019-11-14 10:38:03.934]# RECV HEX>
06 03 02 1C C9 C5 12 

[2019-11-14 10:38:03.984]# SEND HEX>
06 03 00 04 00 01 C4 7C 

[2019-11-14 10:38:04.051]# RECV HEX>
06 03 02 1C 99 C5 2E 

[2019-11-14 10:38:04.084]# SEND HEX>
06 03 00 04 00 01 C4 7C 

[2019-11-14 10:38:04.167]# RECV HEX>
D0 02 1C 99 C5 2E 

[2019-11-14 10:38:04.216]# SEND HEX>
06 03 00 04 00 01 C4 7C 

[2019-11-14 10:38:04.284]# RECV HEX>
06 03 02 1C 99 C5 2E 

[2019-11-14 10:38:04.317]# SEND HEX>
06 03 00 04 00 01 C4 7C 

[2019-11-14 10:38:04.401]# RECV HEX>
06 03 02 1C AC 05 39 

[2019-11-14 10:38:04.433]# SEND HEX>
06 03 00 04 00 01 C4 7C 

[2019-11-14 10:38:04.500]# RECV HEX>
FF FF FF FF FF FF FF FF FF FF FF FF FF FF 06 03 02 1C AC 05 39 

[2019-11-14 10:38:04.550]# SEND HEX>
06 03 00 04 00 01 C4 7C 

[2019-11-14 10:38:04.617]# RECV HEX>
FF FF FF FF FF FF FF FF FF FF FF FF FF FF 06 03 02 1C AC 05 39 

[2019-11-14 10:38:04.679]# SEND HEX>
06 03 00 04 00 01 C4 7C 

[2019-11-14 10:38:04.734]# RECV HEX>
FF FF FF FF FF FF FF FF FF FF FF FF FF FF 06 03 02 1C 5E 84 BC 

[2019-11-14 10:38:04.783]# SEND HEX>
06 03 00 04 00 01 C4 7C 

[2019-11-14 10:38:04.867]# RECV HEX>
06 60 02 1C 5E 84 BC 

[2019-11-14 10:38:04.898]# SEND HEX>
06 03 00 04 00 01 C4 7C 

[2019-11-14 10:38:04.967]# RECV HEX>
06 03 02 1C F3 45 01 

[2019-11-14 10:38:05.016]# SEND HEX>
06 03 00 04 00 01 C4 7C 

[2019-11-14 10:38:05.083]# RECV HEX>
FF FF FF FF FF FF FF FF FF FF FF FF FF FF 06 03 02 1C F3 45 01 

[2019-11-14 10:38:05.133]# SEND HEX>
06 03 00 04 00 01 C4 7C 

[2019-11-14 10:38:05.167]# RECV HEX>
FF FF FF FF FF FF FF FF FF FF FF FF FF FF 06 03 02 1C F3 45 01 

[2019-11-14 10:38:05.233]# SEND HEX>
06 03 00 04 00 01 C4 7C 

[2019-11-14 10:38:05.300]# RECV HEX>
FF FF FF FF FF FF FF FF FF FF FF FF FF FF 06 03 02 1D 55 C4 EB 

[2019-11-14 10:38:05.349]# SEND HEX>
06 03 00 04 00 01 C4 7C 

[2019-11-14 10:38:05.383]# RECV HEX>
FF FF FF FF FF FF FF FF FF FF FF FF FF FF 06 03 02 1D 55 C4 EB 

[2019-11-14 10:38:05.464]# SEND HEX>
06 03 00 04 00 01 C4 7C 

[2019-11-14 10:38:05.500]# RECV HEX>
FF FF FF FF FF FF FF FF FF FF FF FF FF FF 06 03 02 1D 55 C4 EB 

[2019-11-14 10:38:05.565]# SEND HEX>
06 03 00 04 00 01 C4 7C 

[2019-11-14 10:38:05.633]# RECV HEX>
FF FF FF FF FF FF FF FF FF FF FF FF FF FF 06 03 02 1D 42 84 E5 

[2019-11-14 10:38:05.682]# SEND HEX>
06 03 00 04 00 01 C4 7C 

[2019-11-14 10:38:05.749]# RECV HEX>
FF FF FF FF FF FF FF FF FF FF FF FF FF FF 06 03 02 1D 42 84 E5 

[2019-11-14 10:38:05.799]# SEND HEX>
06 03 00 04 00 01 C4 7C 

[2019-11-14 10:38:05.866]# RECV HEX>
FF FF FF FF FF FF FF FF FF FF FF FF FF FF 06 03 02 1D 10 05 18 

[2019-11-14 10:38:05.916]# SEND HEX>
06 03 00 04 00 01 C4 7C 

[2019-11-14 10:38:05.982]# RECV HEX>
06 03 02 1D 10 05 18 

[2019-11-14 10:38:06.032]# SEND HEX>
06 03 00 04 00 01 C4 7C 

[2019-11-14 10:38:06.116]# RECV HEX>
06 03 02 1D 10 05 18 

[2019-11-14 10:38:06.145]# SEND HEX>
06 03 00 04 00 01 C4 7C 

[2019-11-14 10:38:06.216]# RECV HEX>
06 03 02 1D 57 45 2A 

[2019-11-14 10:38:06.264]# SEND HEX>
06 03 00 04 00 01 C4 7C 

[2019-11-14 10:38:06.300]# RECV HEX>
06 60 02 1D 57 45 2A 

[2019-11-14 10:38:06.366]# SEND HEX>
06 03 00 04 00 01 C4 7C 

[2019-11-14 10:38:06.449]# RECV HEX>
06 03 02 1D 57 45 2A 

[2019-11-14 10:38:06.481]# SEND HEX>
06 03 00 04 00 01 C4 7C 

[2019-11-14 10:38:06.549]# RECV HEX>
D0 02 1D 40 05 24 

[2019-11-14 10:38:06.582]# SEND HEX>
06 03 00 04 00 01 C4 7C 

[2019-11-14 10:38:06.649]# RECV HEX>
06 03 02 1D 40 05 24 

[2019-11-14 10:38:06.711]# SEND HEX>
06 03 00 04 00 01 C4 7C 

[2019-11-14 10:38:06.750]# RECV HEX>
06 60 02 1D 40 05 24 

[2019-11-14 10:38:06.815]# SEND HEX>
06 03 00 04 00 01 C4 7C 

[2019-11-14 10:38:06.900]# RECV HEX>
06 03 02 1D 2E 84 C8 

[2019-11-14 10:38:06.932]# SEND HEX>
06 03 00 04 00 01 C4 7C 

[2019-11-14 10:38:06.998]# RECV HEX>
06 03 02 1D 2E 84 C8 

[2019-11-14 10:38:07.048]# SEND HEX>
06 03 00 04 00 01 C4 7C 

[2019-11-14 10:38:07.132]# RECV HEX>
06 03 02 1D 4A 85 23 

[2019-11-14 10:38:07.164]# SEND HEX>
06 03 00 04 00 01 C4 7C 

[2019-11-14 10:38:07.231]# RECV HEX>
FF FF FF FF FF FF FF FF FF FF FF FF FF FF 06 03 02 1D 4A 85 23 

[2019-11-14 10:38:07.281]# SEND HEX>
06 03 00 04 00 01 C4 7C 

[2019-11-14 10:38:07.365]# RECV HEX>
FF FF FF FF FF FF FF FF FF FF FF FF FF FF 06 03 02 1D 4A 85 23 

[2019-11-14 10:38:07.377]# SEND HEX>
06 03 00 04 00 01 C4 7C 

[2019-11-14 10:38:07.465]# RECV HEX>
FF FF FF FF FF FF FF FF FF FF FF FF FF FF 06 03 02 1E 30 04 30 

[2019-11-14 10:38:07.494]# SEND HEX>
06 03 00 04 00 01 C4 7C 

[2019-11-14 10:38:07.564]# RECV HEX>
06 03 02 1E 30 04 30 

[2019-11-14 10:38:07.598]# SEND HEX>
06 03 00 04 00 01 C4 7C 

[2019-11-14 10:38:07.682]# RECV HEX>
06 03 02 1E 30 04 30 

[2019-11-14 10:38:07.726]# SEND HEX>
06 03 00 04 00 01 C4 7C 

[2019-11-14 10:38:07.781]# RECV HEX>
06 03 02 1D F9 C4 96 

[2019-11-14 10:38:07.831]# SEND HEX>
06 03 00 04 00 01 C4 7C 

[2019-11-14 10:38:07.898]# RECV HEX>
06 03 02 1D F9 C4 96 

[2019-11-14 10:38:07.931]# SEND HEX>
06 03 00 04 00 01 C4 7C 

[2019-11-14 10:38:07.997]# RECV HEX>
06 03 02 1D F9 C4 96 

[2019-11-14 10:38:08.047]# SEND HEX>
06 03 00 04 00 01 C4 7C 

[2019-11-14 10:38:08.114]# RECV HEX>
06 03 02 1D FE 85 54 

[2019-11-14 10:38:08.147]# SEND HEX>
06 03 00 04 00 01 C4 7C 

[2019-11-14 10:38:08.231]# RECV HEX>
06 03 02 1D FE 85 54 

[2019-11-14 10:38:08.279]# SEND HEX>
06 03 00 04 00 01 C4 7C 

[2019-11-14 10:38:08.347]# RECV HEX>
06 03 02 1F 19 C4 7E 

[2019-11-14 10:38:08.381]# SEND HEX>
06 03 00 04 00 01 C4 7C 

[2019-11-14 10:38:08.464]# RECV HEX>
06 03 02 1F 19 C4 7E 

[2019-11-14 10:38:08.496]# SEND HEX>
06 03 00 04 00 01 C4 7C 

[2019-11-14 10:38:08.564]# RECV HEX>
06 03 02 1F 19 C4 7E 

[2019-11-14 10:38:08.613]# SEND HEX>
06 03 00 04 00 01 C4 7C 

[2019-11-14 10:38:08.680]# RECV HEX>
D0 02 1F 63 45 9D 

[2019-11-14 10:38:08.742]# SEND HEX>
06 03 00 04 00 01 C4 7C 

[2019-11-14 10:38:08.814]# RECV HEX>
FF FF FF FF FF FF FF FF FF FF FF FF FF FF 06 03 02 1F 63 45 9D 

[2019-11-14 10:38:08.838]# SEND HEX>
06 03 00 04 00 01 C4 7C 

[2019-11-14 10:38:08.914]# RECV HEX>
FF FF FF FF FF FF FF FF FF FF FF FF FF FF 06 03 02 1F 63 45 9D 

[2019-11-14 10:38:08.946]# SEND HEX>
06 03 00 04 00 01 C4 7C 

[2019-11-14 10:38:09.013]# RECV HEX>
FF FF FF FF FF FF FF FF FF FF FF FF FF FF 06 03 02 1F BF 44 04 

[2019-11-14 10:38:09.063]# SEND HEX>
06 03 00 04 00 01 C4 7C 

[2019-11-14 10:38:09.147]# RECV HEX>
D0 02 1F BF 44 04 

[2019-11-14 10:38:09.176]# SEND HEX>
06 03 00 04 00 01 C4 7C 

[2019-11-14 10:38:09.246]# RECV HEX>
06 03 02 1F 85 C4 17 

[2019-11-14 10:38:09.295]# SEND HEX>
06 03 00 04 00 01 C4 7C 

[2019-11-14 10:38:09.331]# RECV HEX>
FF FF FF FF FF FF FF FF FF FF FF FF FF FF 06 03 02 1F 85 C4 17 

[2019-11-14 10:38:09.395]# SEND HEX>
06 03 00 04 00 01 C4 7C 

[2019-11-14 10:38:09.463]# RECV HEX>
FF FF FF FF FF FF FF FF FF FF FF FF FF FF 06 03 02 1F 85 C4 17 

[2019-11-14 10:38:09.513]# SEND HEX>
06 03 00 04 00 01 C4 7C 

[2019-11-14 10:38:09.579]# RECV HEX>
FF FF FF FF FF FF FF FF FF FF FF FF FF FF 06 03 02 1F 65 C5 9F 

[2019-11-14 10:38:09.629]# SEND HEX>
06 03 00 04 00 01 C4 7C 

[2019-11-14 10:38:09.696]# RECV HEX>
FF FF FF FF FF FF FF FF FF FF FF FF FF FF 06 03 02 1F 65 C5 9F 

[2019-11-14 10:38:09.757]# SEND HEX>
06 03 00 04 00 01 C4 7C 

[2019-11-14 10:38:09.830]# RECV HEX>
FF FF FF FF FF FF FF FF FF FF FF FF FF FF 06 03 02 1F 65 C5 9F 

[2019-11-14 10:38:09.854]# SEND HEX>
06 03 00 04 00 01 C4 7C 

[2019-11-14 10:38:09.930]# RECV HEX>
FF FF FF FF FF FF FF FF FF FF FF FF FF FF 06 03 02 1F 48 05 82 

[2019-11-14 10:38:09.960]# SEND HEX>
06 03 00 04 00 01 C4 7C 

[2019-11-14 10:38:10.029]# RECV HEX>
06 03 02 1F 48 05 82 

[2019-11-14 10:38:10.079]# SEND HEX>
06 03 00 04 00 01 C4 7C 

[2019-11-14 10:38:10.163]# RECV HEX>
06 03 02 1F 48 05 82 

[2019-11-14 10:38:10.192]# SEND HEX>
06 03 00 04 00 01 C4 7C 

[2019-11-14 10:38:10.262]# RECV HEX>
06 03 02 1E 93 44 49 

[2019-11-14 10:38:10.311]# SEND HEX>
06 03 00 04 00 01 C4 7C 

[2019-11-14 10:38:10.347]# RECV HEX>
FF FF FF FF FF FF FF FF FF FF FF FF FF FF 06 03 02 1E 93 44 49 

[2019-11-14 10:38:10.411]# SEND HEX>
06 03 00 04 00 01 C4 7C 

[2019-11-14 10:38:10.479]# RECV HEX>
FF FF FF FF FF FF FF FF FF FF FF FF FF FF 06 03 02 1D F1 C5 50 

[2019-11-14 10:38:10.529]# SEND HEX>
06 03 00 04 00 01 C4 7C 

[2019-11-14 10:38:10.595]# RECV HEX>
06 03 02 1D F1 C5 50 

[2019-11-14 10:38:10.628]# SEND HEX>
06 03 00 04 00 01 C4 7C 

[2019-11-14 10:38:10.696]# RECV HEX>
06 03 02 1D F1 C5 50 

[2019-11-14 10:38:10.745]# SEND HEX>
06 03 00 04 00 01 C4 7C 

[2019-11-14 10:38:10.829]# RECV HEX>
06 03 02 1D DF 45 4C 

[2019-11-14 10:38:10.860]# SEND HEX>
06 03 00 04 00 01 C4 7C 

[2019-11-14 10:38:10.928]# RECV HEX>
06 03 02 1D DF 45 4C 

[2019-11-14 10:38:10.960]# SEND HEX>
06 03 00 04 00 01 C4 7C 

[2019-11-14 10:38:11.029]# RECV HEX>
06 03 02 1D DF 45 4C 

[2019-11-14 10:38:11.078]# SEND HEX>
06 03 00 04 00 01 C4 7C 

[2019-11-14 10:38:11.162]# RECV HEX>
06 03 02 1D 9E 85 7C 

[2019-11-14 10:38:11.174]# SEND HEX>
06 03 00 04 00 01 C4 7C 

[2019-11-14 10:38:11.262]# RECV HEX>
06 03 02 1D 9E 85 7C 

[2019-11-14 10:38:11.305]# SEND HEX>
06 03 00 04 00 01 C4 7C 

[2019-11-14 10:38:11.361]# RECV HEX>
06 03 02 1D 9E 85 7C 

[2019-11-14 10:38:11.395]# SEND HEX>
06 03 00 04 00 01 C4 7C 

[2019-11-14 10:38:11.478]# RECV HEX>
06 03 02 1D C4 05 47 

[2019-11-14 10:38:11.503]# SEND HEX>
06 03 00 04 00 01 C4 7C 

[2019-11-14 10:38:11.579]# RECV HEX>
FF FF FF FF FF FF FF FF FF FF FF FF FF FF 06 03 02 1D C4 05 47 

[2019-11-14 10:38:11.611]# SEND HEX>
06 03 00 04 00 01 C4 7C 

[2019-11-14 10:38:11.694]# RECV HEX>
FF FF FF FF FF FF FF FF FF FF FF FF FF FF 06 03 02 1D 9A 84 BF 

[2019-11-14 10:38:11.728]# SEND HEX>
06 03 00 04 00 01 C4 7C 

[2019-11-14 10:38:11.794]# RECV HEX>
FF FF FF FF FF FF FF FF FF FF FF FF FF FF 06 03 02 1D 9A 84 BF 

[2019-11-14 10:38:11.843]# SEND HEX>
06 03 00 04 00 01 C4 7C 

[2019-11-14 10:38:11.878]# RECV HEX>
FF FF FF FF FF FF FF FF FF FF FF FF FF FF 06 03 02 1D 9A 84 BF 

[2019-11-14 10:38:11.943]# SEND HEX>
06 03 00 04 00 01 C4 7C 

[2019-11-14 10:38:12.011]# RECV HEX>
FF FF FF FF FF FF FF FF FF FF FF FF FF FF 06 03 02 1D 83 45 75 

[2019-11-14 10:38:12.060]# SEND HEX>
06 03 00 04 00 01 C4 7C 

[2019-11-14 10:38:12.127]# RECV HEX>
FF FF FF FF FF FF FF FF FF FF FF FF FF FF 06 03 02 1D 83 45 75 

[2019-11-14 10:38:12.176]# SEND HEX>
06 03 00 04 00 01 C4 7C 

[2019-11-14 10:38:12.210]# RECV HEX>
FF FF FF FF FF FF FF FF FF FF FF FF FF FF 06 03 02 1D 83 45 75 

[2019-11-14 10:38:12.276]# SEND HEX>
06 03 00 04 00 01 C4 7C 

[2019-11-14 10:38:12.360]# RECV HEX>
FF FF FF FF FF FF FF FF FF FF FF FF FF FF 06 03 02 1E 10 05 E8 

[2019-11-14 10:38:12.378]# SEND HEX>
06 03 00 04 00 01 C4 7C 

[2019-11-14 10:38:12.461]# RECV HEX>
D0 02 1E 10 05 E8 

[2019-11-14 10:38:12.493]# SEND HEX>
06 03 00 04 00 01 C4 7C 

[2019-11-14 10:38:12.560]# RECV HEX>
06 03 02 1E 10 05 E8 

[2019-11-14 10:38:12.610]# SEND HEX>
06 03 00 04 00 01 C4 7C 

[2019-11-14 10:38:12.694]# RECV HEX>
06 60 02 1D AB 45 6B 

[2019-11-14 10:38:12.726]# SEND HEX>
06 03 00 04 00 01 C4 7C 

[2019-11-14 10:38:12.794]# RECV HEX>
FF FF FF FF FF FF FF FF FF FF FF FF FF FF 06 03 02 1D AB 45 6B 

[2019-11-14 10:38:12.858]# SEND HEX>
06 03 00 04 00 01 C4 7C 

[2019-11-14 10:38:12.926]# RECV HEX>
FF FF FF FF FF FF FF FF FF FF FF FF FF FF 06 03 02 1E 34 05 F3 

[2019-11-14 10:38:12.959]# SEND HEX>
06 03 00 04 00 01 C4 7C 

[2019-11-14 10:38:13.026]# RECV HEX>
FF FF FF FF FF FF FF FF FF FF FF FF FF FF 06 03 02 1E 34 05 F3 

[2019-11-14 10:38:13.076]# SEND HEX>
06 03 00 04 00 01 C4 7C 

[2019-11-14 10:38:13.160]# RECV HEX>
FF FF FF FF FF FF FF FF FF FF FF FF FF FF 06 03 02 1E 34 05 F3 

[2019-11-14 10:38:13.185]# SEND HEX>
06 03 00 04 00 01 C4 7C 

[2019-11-14 10:38:13.260]# RECV HEX>
FF FF FF FF FF FF FF FF FF FF FF FF FF FF 06 03 02 1D D4 04 8B 

[2019-11-14 10:38:13.292]# SEND HEX>
06 03 00 04 00 01 C4 7C 

[2019-11-14 10:38:13.359]# RECV HEX>
FF FF FF FF FF FF FF FF FF FF FF FF FF FF 06 03 02 1D D4 04 8B 

[2019-11-14 10:38:13.393]# SEND HEX>
06 03 00 04 00 01 C4 7C 

[2019-11-14 10:38:13.476]# RECV HEX>
FF FF FF FF FF FF FF FF FF FF FF FF FF FF 06 03 02 1D D4 04 8B 

[2019-11-14 10:38:13.525]# SEND HEX>
06 03 00 04 00 01 C4 7C 

[2019-11-14 10:38:13.560]# RECV HEX>
FF FF FF FF FF FF FF FF FF FF FF FF FF FF 06 03 02 1D 6F 44 F8 

[2019-11-14 10:38:13.627]# SEND HEX>
06 03 00 04 00 01 C4 7C 

[2019-11-14 10:38:13.709]# RECV HEX>
06 03 02 1D 6F 44 F8 

[2019-11-14 10:38:13.741]# SEND HEX>
06 03 00 04 00 01 C4 7C 

[2019-11-14 10:38:13.809]# RECV HEX>
06 03 02 1D 6F 44 F8 

[2019-11-14 10:38:13.875]# SEND HEX>
06 03 00 04 00 01 C4 7C 

[2019-11-14 10:38:13.942]# RECV HEX>
06 03 02 1D 80 05 74 

[2019-11-14 10:38:13.976]# SEND HEX>
06 03 00 04 00 01 C4 7C 

[2019-11-14 10:38:14.042]# RECV HEX>
06 03 02 1D 80 05 74 

[2019-11-14 10:38:14.092]# SEND HEX>
06 03 00 04 00 01 C4 7C 

[2019-11-14 10:38:14.176]# RECV HEX>
06 03 02 1D AB 45 6B 

[2019-11-14 10:38:14.191]# SEND HEX>
06 03 00 04 00 01 C4 7C 

[2019-11-14 10:38:14.277]# RECV HEX>
FF FF FF FF FF FF FF FF FF FF FF FF FF FF 06 03 02 1D AB 45 6B 

[2019-11-14 10:38:14.307]# SEND HEX>
06 03 00 04 00 01 C4 7C 

[2019-11-14 10:38:14.375]# RECV HEX>
FF FF FF FF FF FF FF FF FF FF FF FF FF FF 06 03 02 1D AB 45 6B 

[2019-11-14 10:38:14.409]# SEND HEX>
06 03 00 04 00 01 C4 7C 

[2019-11-14 10:38:14.492]# RECV HEX>
FF FF FF FF FF FF FF FF FF FF FF FF FF FF 06 03 02 1D 23 45 0D 

[2019-11-14 10:38:14.541]# SEND HEX>
06 03 00 04 00 01 C4 7C 

[2019-11-14 10:38:14.575]# RECV HEX>
FF FF FF FF FF FF FF FF FF FF FF FF FF FF 06 03 02 1D 23 45 0D 

[2019-11-14 10:38:14.653]# SEND HEX>
06 03 00 04 00 01 C4 7C 

[2019-11-14 10:38:14.692]# RECV HEX>
FF FF FF FF FF FF FF FF FF FF FF FF FF FF 06 03 02 1D 23 45 0D 

[2019-11-14 10:38:14.741]# SEND HEX>
06 03 00 04 00 01 C4 7C 

[2019-11-14 10:38:14.808]# RECV HEX>
FF FF FF FF FF FF FF FF FF FF FF FF FF FF 06 03 02 1C D3 44 D9 

[2019-11-14 10:38:14.870]# SEND HEX>
06 03 00 04 00 01 C4 7C 

[2019-11-14 10:38:14.908]# RECV HEX>
FF FF FF FF FF FF FF FF FF FF FF FF FF FF 06 03 02 1C D3 44 D9 

[2019-11-14 10:38:14.958]# SEND HEX>
06 03 00 04 00 01 C4 7C 

[2019-11-14 10:38:15.028]# RECV HEX>
FF FF FF FF FF FF FF FF FF FF FF FF FF FF 06 03 02 1C D3 44 D9 

[2019-11-14 10:38:15.074]# SEND HEX>
06 03 00 04 00 01 C4 7C 

[2019-11-14 10:38:15.158]# RECV HEX>
FF FF FF FF FF FF FF FF FF FF FF FF FF FF 06 03 02 1D 1C 05 1D 

[2019-11-14 10:38:15.183]# SEND HEX>
06 03 00 04 00 01 C4 7C 

[2019-11-14 10:38:15.259]# RECV HEX>
FF FF FF FF FF FF FF FF FF FF FF FF FF FF 06 03 02 1D 1C 05 1D 

[2019-11-14 10:38:15.284]# SEND HEX>
06 03 00 04 00 01 C4 7C 

[2019-11-14 10:38:15.358]# RECV HEX>
FF FF FF FF FF FF FF FF FF FF FF FF FF FF 06 03 02 1D 1C 05 1D 

[2019-11-14 10:38:15.407]# SEND HEX>
06 03 00 04 00 01 C4 7C 

[2019-11-14 10:38:15.442]# RECV HEX>
FF FF FF FF FF FF FF FF FF FF FF FF FF FF 06 03 02 1C F8 04 C6 

[2019-11-14 10:38:15.511]# SEND HEX>
06 03 00 04 00 01 C4 7C 

[2019-11-14 10:38:15.591]# RECV HEX>
D0 02 1C F8 04 C6 

[2019-11-14 10:38:15.623]# SEND HEX>
06 03 00 04 00 01 C4 7C 

[2019-11-14 10:38:15.691]# RECV HEX>
06 03 02 1D 7A 85 37 

[2019-11-14 10:38:15.740]# SEND HEX>
06 03 00 04 00 01 C4 7C 

[2019-11-14 10:38:15.774]# RECV HEX>
FF FF FF FF FF FF FF FF FF FF FF FF FF FF 06 03 02 1D 7A 85 37 

[2019-11-14 10:38:15.866]# SEND HEX>
06 03 00 04 00 01 C4 7C 

[2019-11-14 10:38:15.891]# RECV HEX>
FF FF FF FF FF FF FF FF FF FF FF FF FF FF 06 03 02 1D 7A 85 37 

[2019-11-14 10:38:15.956]# SEND HEX>
06 03 00 04 00 01 C4 7C 

[2019-11-14 10:38:16.024]# RECV HEX>
FF FF FF FF FF FF FF FF FF FF FF FF FF FF 06 03 02 1C EA 84 CB 

[2019-11-14 10:38:16.073]# SEND HEX>
06 03 00 04 00 01 C4 7C 

[2019-11-14 10:38:16.140]# RECV HEX>
FF FF FF FF FF FF FF FF FF FF FF FF FF FF 06 03 02 1C EA 84 CB 

[2019-11-14 10:38:16.190]# SEND HEX>
06 03 00 04 00 01 C4 7C 

[2019-11-14 10:38:16.224]# RECV HEX>
FF FF FF FF FF FF FF FF FF FF FF FF FF FF 06 03 02 1C EA 84 CB 

[2019-11-14 10:38:16.289]# SEND HEX>
06 03 00 04 00 01 C4 7C 

[2019-11-14 10:38:16.357]# RECV HEX>
FF FF FF FF FF FF FF FF FF FF FF FF FF FF 06 03 02 1D 1B 44 DF 

[2019-11-14 10:38:16.405]# SEND HEX>
06 03 00 04 00 01 C4 7C 

[2019-11-14 10:38:16.440]# RECV HEX>
FF FF FF FF FF FF FF FF FF FF FF FF FF FF 06 03 02 1D 1B 44 DF 

[2019-11-14 10:38:16.506]# SEND HEX>
06 03 00 04 00 01 C4 7C 

[2019-11-14 10:38:16.573]# RECV HEX>
FF FF FF FF FF FF FF FF FF FF FF FF FF FF 06 03 02 1D 1B 44 DF 

[2019-11-14 10:38:16.622]# SEND HEX>
06 03 00 04 00 01 C4 7C 

[2019-11-14 10:38:16.690]# RECV HEX>
FF FF FF FF FF FF FF FF FF FF FF FF FF FF 06 03 02 1D 6F 44 F8 

[2019-11-14 10:38:16.723]# SEND HEX>
06 03 00 04 00 01 C4 7C 

[2019-11-14 10:38:16.790]# RECV HEX>
06 03 02 1D 6F 44 F8 

[2019-11-14 10:38:16.839]# SEND HEX>
06 03 00 04 00 01 C4 7C 

[2019-11-14 10:38:16.923]# RECV HEX>
06 03 02 1D 1E 84 DC 

[2019-11-14 10:38:16.940]# SEND HEX>
06 03 00 04 00 01 C4 7C 

[2019-11-14 10:38:17.023]# RECV HEX>
D0 02 1D 1E 84 DC 

[2019-11-14 10:38:17.055]# SEND HEX>
06 03 00 04 00 01 C4 7C 

[2019-11-14 10:38:17.123]# RECV HEX>
D0 02 1D 1E 84 DC 

[2019-11-14 10:38:17.173]# SEND HEX>
06 03 00 04 00 01 C4 7C 

[2019-11-14 10:38:17.256]# RECV HEX>
06 03 02 1C A8 04 FA 

[2019-11-14 10:38:17.285]# SEND HEX>
06 03 00 04 00 01 C4 7C 

[2019-11-14 10:38:17.356]# RECV HEX>
06 03 02 1C A8 04 FA 

[2019-11-14 10:38:17.405]# SEND HEX>
06 03 00 04 00 01 C4 7C 

[2019-11-14 10:38:17.473]# RECV HEX>
D0 02 1C A8 04 FA 

[2019-11-14 10:38:17.506]# SEND HEX>
06 03 00 04 00 01 C4 7C 

[2019-11-14 10:38:17.590]# RECV HEX>
06 03 02 1C 74 05 63 

[2019-11-14 10:38:17.621]# SEND HEX>
06 03 00 04 00 01 C4 7C 

[2019-11-14 10:38:17.690]# RECV HEX>
FF FF FF FF FF FF FF FF FF FF FF FF FF FF 06 03 02 1C 74 05 63 

[2019-11-14 10:38:17.722]# SEND HEX>
06 03 00 04 00 01 C4 7C 

[2019-11-14 10:38:17.789]# RECV HEX>
FF FF FF FF FF FF FF FF FF FF FF FF FF FF 06 03 02 1C 74 05 63 

[2019-11-14 10:38:17.839]# SEND HEX>
06 03 00 04 00 01 C4 7C 

[2019-11-14 10:38:17.906]# RECV HEX>
FF FF FF FF FF FF FF FF FF FF FF FF FF FF 06 03 02 1C DF 44 DC 

[2019-11-14 10:38:17.955]# SEND HEX>
06 03 00 04 00 01 C4 7C 

[2019-11-14 10:38:18.022]# RECV HEX>
D0 02 1C DF 44 DC 

[2019-11-14 10:38:18.054]# SEND HEX>
06 03 00 04 00 01 C4 7C 

[2019-11-14 10:38:18.122]# RECV HEX>
06 03 02 1C DF 44 DC 

[2019-11-14 10:38:18.172]# SEND HEX>
06 03 00 04 00 01 C4 7C 

[2019-11-14 10:38:18.256]# RECV HEX>
06 03 02 1B ED C7 39 

[2019-11-14 10:38:18.268]# SEND HEX>
06 03 00 04 00 01 C4 7C 

[2019-11-14 10:38:18.356]# RECV HEX>
FF FF FF FF FF FF FF FF FF FF FF FF FF FF 06 03 02 1B ED C7 39 

[2019-11-14 10:38:18.404]# SEND HEX>
06 03 00 04 00 01 C4 7C 

[2019-11-14 10:38:18.472]# RECV HEX>
FF FF FF FF FF FF FF FF FF FF FF FF FF FF 06 03 02 1B 8D C7 11 

[2019-11-14 10:38:18.506]# SEND HEX>
06 03 00 04 00 01 C4 7C 

[2019-11-14 10:38:18.572]# RECV HEX>
FF FF FF FF FF FF FF FF FF FF FF FF FF FF 06 03 02 1B 8D C7 11 

[2019-11-14 10:38:18.621]# SEND HEX>
06 03 00 04 00 01 C4 7C 

[2019-11-14 10:38:18.688]# RECV HEX>
FF FF FF FF FF FF FF FF FF FF FF FF FF FF 06 03 02 1B 8D C7 11 

[2019-11-14 10:38:18.721]# SEND HEX>
06 03 00 04 00 01 C4 7C 

[2019-11-14 10:38:18.788]# RECV HEX>
FF FF FF FF FF FF FF FF FF FF FF FF FF FF 06 03 02 1B E9 C6 FA 

[2019-11-14 10:38:18.838]# SEND HEX>
06 03 00 04 00 01 C4 7C 

[2019-11-14 10:38:18.922]# RECV HEX>
D0 02 1B E9 C6 FA 

[2019-11-14 10:38:18.953]# SEND HEX>
06 03 00 04 00 01 C4 7C 

[2019-11-14 10:38:19.022]# RECV HEX>
D0 02 1B E9 C6 FA 

[2019-11-14 10:38:19.055]# SEND HEX>
06 03 00 04 00 01 C4 7C 

[2019-11-14 10:38:19.121]# RECV HEX>
06 03 02 1C 70 04 A0 

[2019-11-14 10:38:19.171]# SEND HEX>
06 03 00 04 00 01 C4 7C 

[2019-11-14 10:38:19.255]# RECV HEX>
D0 02 1C 70 04 A0 

[2019-11-14 10:38:19.270]# SEND HEX>
06 03 00 04 00 01 C4 7C 

[2019-11-14 10:38:19.355]# RECV HEX>
06 03 02 1C 70 04 A0 

[2019-11-14 10:38:19.383]# SEND HEX>
06 03 00 04 00 01 C4 7C 

[2019-11-14 10:38:19.454]# RECV HEX>
06 03 02 1B FA 87 37 

[2019-11-14 10:38:19.503]# SEND HEX>
06 03 00 04 00 01 C4 7C 

[2019-11-14 10:38:19.537]# RECV HEX>
FF FF FF FF FF FF FF FF FF FF FF FF FF FF 06 03 02 1B FA 87 37 

[2019-11-14 10:38:19.603]# SEND HEX>
06 03 00 04 00 01 C4 7C 

[2019-11-14 10:38:19.671]# RECV HEX>
FF FF FF FF FF FF FF FF FF FF FF FF FF FF 06 03 02 1C 23 44 9D 

[2019-11-14 10:38:19.720]# SEND HEX>
06 03 00 04 00 01 C4 7C 

[2019-11-14 10:38:19.787]# RECV HEX>
FF FF FF FF FF FF FF FF FF FF FF FF FF FF 06 03 02 1C 23 44 9D 

[2019-11-14 10:38:19.836]# SEND HEX>
06 03 00 04 00 01 C4 7C 

[2019-11-14 10:38:19.871]# RECV HEX>
FF FF FF FF FF FF FF FF FF FF FF FF FF FF 06 03 02 1C 23 44 9D 

[2019-11-14 10:38:19.936]# SEND HEX>
06 03 00 04 00 01 C4 7C 

[2019-11-14 10:38:20.021]# RECV HEX>
FF FF FF FF FF FF FF FF FF FF FF FF FF FF 06 03 02 1B B8 07 06 

[2019-11-14 10:38:20.033]# SEND HEX>
06 03 00 04 00 01 C4 7C 

[2019-11-14 10:38:20.122]# RECV HEX>
D0 02 1B B8 07 06 

[2019-11-14 10:38:20.153]# SEND HEX>
06 03 00 04 00 01 C4 7C 

[2019-11-14 10:38:20.220]# RECV HEX>
06 03 02 1B B8 07 06 

[2019-11-14 10:38:20.253]# SEND HEX>
06 03 00 04 00 01 C4 7C 

[2019-11-14 10:38:20.320]# RECV HEX>
D0 02 1C 4B 45 73 

[2019-11-14 10:38:20.381]# SEND HEX>
06 03 00 04 00 01 C4 7C 

[2019-11-14 10:38:20.437]# RECV HEX>
FF FF FF FF FF FF FF FF FF FF FF FF FF FF 06 03 02 1C 4B 45 73 

[2019-11-14 10:38:20.470]# SEND HEX>
06 03 00 04 00 01 C4 7C 

[2019-11-14 10:38:20.554]# RECV HEX>
FF FF FF FF FF FF FF FF FF FF FF FF FF FF 06 03 02 1C 4B 45 73 

[2019-11-14 10:38:20.602]# SEND HEX>
06 03 00 04 00 01 C4 7C 

[2019-11-14 10:38:20.670]# RECV HEX>
FF FF FF FF FF FF FF FF FF FF FF FF FF FF 06 03 02 1C 81 C5 24 

[2019-11-14 10:38:20.702]# SEND HEX>
06 03 00 04 00 01 C4 7C 

[2019-11-14 10:38:20.770]# RECV HEX>
06 03 02 1C 81 C5 24 

[2019-11-14 10:38:20.804]# SEND HEX>
06 03 00 04 00 01 C4 7C 

[2019-11-14 10:38:20.887]# RECV HEX>
06 03 02 1C 81 C5 24 

[2019-11-14 10:38:20.934]# SEND HEX>
06 03 00 04 00 01 C4 7C 

[2019-11-14 10:38:20.971]# RECV HEX>
06 03 02 1C 69 C5 6A 

[2019-11-14 10:38:21.037]# SEND HEX>
06 03 00 04 00 01 C4 7C 

[2019-11-14 10:38:21.103]# RECV HEX>
06 03 02 1C 69 C5 6A 

[2019-11-14 10:38:21.152]# SEND HEX>
06 03 00 04 00 01 C4 7C 

[2019-11-14 10:38:21.236]# RECV HEX>
06 03 02 1C 91 C4 E8 

[2019-11-14 10:38:21.252]# SEND HEX>
06 03 00 04 00 01 C4 7C 

[2019-11-14 10:38:21.336]# RECV HEX>
06 03 02 1C 91 C4 E8 

[2019-11-14 10:38:21.368]# SEND HEX>
06 03 00 04 00 01 C4 7C 

[2019-11-14 10:38:21.436]# RECV HEX>
D0 02 1C 91 C4 E8 

[2019-11-14 10:38:21.485]# SEND HEX>
06 03 00 04 00 01 C4 7C 

[2019-11-14 10:38:21.570]# RECV HEX>
06 03 02 1C BE 85 34 

[2019-11-14 10:38:21.601]# SEND HEX>
06 03 00 04 00 01 C4 7C 

[2019-11-14 10:38:21.669]# RECV HEX>
06 03 02 1C BE 85 34 

[2019-11-14 10:38:21.719]# SEND HEX>
06 03 00 04 00 01 C4 7C 

[2019-11-14 10:38:21.802]# RECV HEX>
06 03 02 1C BE 85 34 

[2019-11-14 10:38:21.815]# SEND HEX>
06 03 00 04 00 01 C4 7C 

[2019-11-14 10:38:21.902]# RECV HEX>
06 03 02 1D 3B 45 07 

[2019-11-14 10:38:21.950]# SEND HEX>
06 03 00 04 00 01 C4 7C 

[2019-11-14 10:38:22.018]# RECV HEX>
FF FF FF FF FF FF FF FF FF FF FF FF FF FF 06 03 02 1D 3B 45 07 

[2019-11-14 10:38:22.068]# SEND HEX>
06 03 00 04 00 01 C4 7C 

[2019-11-14 10:38:22.103]# RECV HEX>
FF FF FF FF FF FF FF FF FF FF FF FF FF FF 06 03 02 1D 3B 45 07 

[2019-11-14 10:38:22.168]# SEND HEX>
06 03 00 04 00 01 C4 7C 

[2019-11-14 10:38:22.252]# RECV HEX>
FF FF FF FF FF FF FF FF FF FF FF FF FF FF 06 03 02 1C FA 85 07 

[2019-11-14 10:38:22.277]# SEND HEX>
06 03 00 04 00 01 C4 7C 

[2019-11-14 10:38:22.352]# RECV HEX>
FF FF FF FF FF FF FF FF FF FF FF FF FF FF 06 03 02 1C FA 85 07 

[2019-11-14 10:38:22.384]# SEND HEX>
06 03 00 04 00 01 C4 7C 

[2019-11-14 10:38:22.452]# RECV HEX>
FF FF FF FF FF FF FF FF FF FF FF FF FF FF 06 03 02 1D 63 44 FD 

[2019-11-14 10:38:22.501]# SEND HEX>
06 03 00 04 00 01 C4 7C 

[2019-11-14 10:38:22.568]# RECV HEX>
FF FF FF FF FF FF FF FF FF FF FF FF FF FF 06 03 02 1D 63 44 FD 

[2019-11-14 10:38:22.601]# SEND HEX>
06 03 00 04 00 01 C4 7C 

[2019-11-14 10:38:22.668]# RECV HEX>
FF FF FF FF FF FF FF FF FF FF FF FF FF FF 06 03 02 1D 63 44 FD 

[2019-11-14 10:38:22.718]# SEND HEX>
06 03 00 04 00 01 C4 7C 

[2019-11-14 10:38:22.802]# RECV HEX>
FF FF FF FF FF FF FF FF FF FF FF FF FF FF 06 03 02 1E 3D C5 F5 

[2019-11-14 10:38:22.814]# SEND HEX>
06 03 00 04 00 01 C4 7C 

[2019-11-14 10:38:22.902]# RECV HEX>
FF FF FF FF FF FF FF FF FF FF FF FF FF FF 06 03 02 1E 3D C5 F5 

[2019-11-14 10:38:22.930]# SEND HEX>
06 03 00 04 00 01 C4 7C 

[2019-11-14 10:38:23.002]# RECV HEX>
FF FF FF FF FF FF FF FF FF FF FF FF FF FF 06 03 02 1E 3D C5 F5 

[2019-11-14 10:38:23.050]# SEND HEX>
06 03 00 04 00 01 C4 7C 

[2019-11-14 10:38:23.084]# RECV HEX>
FF FF FF FF FF FF FF FF FF FF FF FF FF FF 06 03 02 1E 78 04 06 

[2019-11-14 10:38:23.155]# SEND HEX>
06 03 00 04 00 01 C4 7C 

[2019-11-14 10:38:23.235]# RECV HEX>
06 03 02 1E 78 04 06 

[2019-11-14 10:38:23.266]# SEND HEX>
06 03 00 04 00 01 C4 7C 

[2019-11-14 10:38:23.334]# RECV HEX>
06 03 02 1E 78 04 06 

[2019-11-14 10:38:23.366]# SEND HEX>
06 03 00 04 00 01 C4 7C 

[2019-11-14 10:38:23.434]# RECV HEX>
06 03 02 1E BA 85 97 

[2019-11-14 10:38:23.483]# SEND HEX>
06 03 00 04 00 01 C4 7C 

[2019-11-14 10:38:23.551]# RECV HEX>
FF FF FF FF FF FF FF FF FF FF FF FF FF FF 06 03 02 1E BA 85 97 

[2019-11-14 10:38:23.583]# SEND HEX>
06 03 00 04 00 01 C4 7C 

[2019-11-14 10:38:23.650]# RECV HEX>
FF FF FF FF FF FF FF FF FF FF FF FF FF FF 06 03 02 1E BA 85 97 

[2019-11-14 10:38:23.700]# SEND HEX>
06 03 00 04 00 01 C4 7C 

[2019-11-14 10:38:23.784]# RECV HEX>
FF FF FF FF FF FF FF FF FF FF FF FF FF FF 06 03 02 1E BF 45 94 

[2019-11-14 10:38:23.813]# SEND HEX>
06 03 00 04 00 01 C4 7C 

[2019-11-14 10:38:23.884]# RECV HEX>
D0 02 1E BF 45 94 

[2019-11-14 10:38:23.913]# SEND HEX>
06 03 00 04 00 01 C4 7C 

[2019-11-14 10:38:23.984]# RECV HEX>
D0 02 1E C1 C5 B4 

[2019-11-14 10:38:24.033]# SEND HEX>
06 03 00 04 00 01 C4 7C 

[2019-11-14 10:38:24.118]# RECV HEX>
06 03 02 1E C1 C5 B4 

[2019-11-14 10:38:24.149]# SEND HEX>
06 03 00 04 00 01 C4 7C 

[2019-11-14 10:38:24.217]# RECV HEX>
06 03 02 1E C1 C5 B4 

[2019-11-14 10:38:24.266]# SEND HEX>
06 03 00 04 00 01 C4 7C 

[2019-11-14 10:38:24.350]# RECV HEX>
06 03 02 1E 41 C4 14 

[2019-11-14 10:38:24.382]# SEND HEX>
06 03 00 04 00 01 C4 7C 

[2019-11-14 10:38:24.450]# RECV HEX>
D0 02 1E 41 C4 14 

[2019-11-14 10:38:24.499]# SEND HEX>
06 03 00 04 00 01 C4 7C 

[2019-11-14 10:38:24.534]# RECV HEX>
06 03 02 1E 41 C4 14 

[2019-11-14 10:38:24.600]# SEND HEX>
06 03 00 04 00 01 C4 7C 

[2019-11-14 10:38:24.683]# RECV HEX>
06 03 02 1D 72 84 F1 

[2019-11-14 10:38:24.715]# SEND HEX>
06 03 00 04 00 01 C4 7C 

[2019-11-14 10:38:24.783]# RECV HEX>
FF FF FF FF FF FF FF FF FF FF FF FF FF FF 06 03 02 1D 72 84 F1 

[2019-11-14 10:38:24.832]# SEND HEX>
06 03 00 04 00 01 C4 7C 

[2019-11-14 10:38:24.867]# RECV HEX>
FF FF FF FF FF FF FF FF FF FF FF FF FF FF 06 03 02 1D 72 84 F1 

[2019-11-14 10:38:24.958]# SEND HEX>
06 03 00 04 00 01 C4 7C 

[2019-11-14 10:38:24.984]# RECV HEX>
FF FF FF FF FF FF FF FF FF FF FF FF FF FF 06 03 02 1D 34 05 03 

[2019-11-14 10:38:25.048]# SEND HEX>
06 03 00 04 00 01 C4 7C 

[2019-11-14 10:38:25.116]# RECV HEX>
FF FF FF FF FF FF FF FF FF FF FF FF FF FF 06 03 02 1D 34 05 03 

[2019-11-14 10:38:25.167]# SEND HEX>
06 03 00 04 00 01 C4 7C 

[2019-11-14 10:38:25.232]# RECV HEX>
FF FF FF FF FF FF FF FF FF FF FF FF FF FF 06 03 02 1C E4 05 0F 

[2019-11-14 10:38:25.282]# SEND HEX>
06 03 00 04 00 01 C4 7C 

[2019-11-14 10:38:25.349]# RECV HEX>
FF FF FF FF FF FF FF FF FF FF FF FF FF FF 06 03 02 1C E4 05 0F 

[2019-11-14 10:38:25.397]# SEND HEX>
06 03 00 04 00 01 C4 7C 

[2019-11-14 10:38:25.433]# RECV HEX>
FF FF FF FF FF FF FF FF FF FF FF FF FF FF 06 03 02 1C E4 05 0F 

[2019-11-14 10:38:25.497]# SEND HEX>
06 03 00 04 00 01 C4 7C 

[2019-11-14 10:38:25.565]# RECV HEX>
FF FF FF FF FF FF FF FF FF FF FF FF FF FF 06 03 02 1D 36 84 C2 

[2019-11-14 10:38:25.597]# SEND HEX>
06 03 00 04 00 01 C4 7C 

[2019-11-14 10:38:25.683]# RECV HEX>
06 03 02 1D 36 84 C2 

[2019-11-14 10:38:25.714]# SEND HEX>
06 03 00 04 00 01 C4 7C 

[2019-11-14 10:38:25.782]# RECV HEX>
06 03 02 1D 36 84 C2 

[2019-11-14 10:38:25.815]# SEND HEX>
06 03 00 04 00 01 C4 7C 

[2019-11-14 10:38:25.899]# RECV HEX>
0E 03 02 1C FA 85 07 

[2019-11-14 10:38:25.924]# SEND HEX>
06 03 00 04 00 01 C4 7C 

[2019-11-14 10:38:25.999]# RECV HEX>
FF FF FF FF FF FF FF FF FF FF FF FF FF FF 06 03 02 1C FA 85 07 

[2019-11-14 10:38:26.047]# SEND HEX>
06 03 00 04 00 01 C4 7C 

[2019-11-14 10:38:26.083]# RECV HEX>
FF FF FF FF FF FF FF FF FF FF FF FF FF FF 06 03 02 1C FA 85 07 

[2019-11-14 10:38:26.163]# SEND HEX>
06 03 00 04 00 01 C4 7C 

[2019-11-14 10:38:26.198]# RECV HEX>
FF FF FF FF FF FF FF FF FF FF FF FF FF FF 06 03 02 1D 2A 85 0B 

[2019-11-14 10:38:26.264]# SEND HEX>
06 03 00 04 00 01 C4 7C 

[2019-11-14 10:38:26.349]# RECV HEX>
FF FF FF FF FF FF FF FF FF FF FF FF FF FF 06 03 02 1D 2A 85 0B 

[2019-11-14 10:38:26.361]# SEND HEX>
06 03 00 04 00 01 C4 7C 

[2019-11-14 10:38:26.448]# RECV HEX>
FF FF FF FF FF FF FF FF FF FF FF FF FF FF 06 03 02 1D 21 C4 CC 

[2019-11-14 10:38:26.492]# SEND HEX>
06 03 00 04 00 01 C4 7C 

[2019-11-14 10:38:26.548]# RECV HEX>
D0 02 1D 21 C4 CC 

[2019-11-14 10:38:26.598]# SEND HEX>
06 03 00 04 00 01 C4 7C 

[2019-11-14 10:38:26.664]# RECV HEX>
06 03 02 1D 21 C4 CC 

[2019-11-14 10:38:26.714]# SEND HEX>
06 03 00 04 00 01 C4 7C 

[2019-11-14 10:38:26.798]# RECV HEX>
06 03 02 1D 50 04 E8 

[2019-11-14 10:38:26.830]# SEND HEX>
06 03 00 04 00 01 C4 7C 

[2019-11-14 10:38:26.898]# RECV HEX>
06 03 02 1D 50 04 E8 

[2019-11-14 10:38:26.930]# SEND HEX>
06 03 00 04 00 01 C4 7C 

[2019-11-14 10:38:26.997]# RECV HEX>
06 03 02 1D 50 04 E8 

[2019-11-14 10:38:27.046]# SEND HEX>
06 03 00 04 00 01 C4 7C 

[2019-11-14 10:38:27.114]# RECV HEX>
06 03 02 1D 9A 84 BF 

[2019-11-14 10:38:27.163]# SEND HEX>
06 03 00 04 00 01 C4 7C 

[2019-11-14 10:38:27.199]# RECV HEX>
FF FF FF FF FF FF FF FF FF FF FF FF FF FF 06 03 02 1D 9A 84 BF 

[2019-11-14 10:38:27.264]# SEND HEX>
06 03 00 04 00 01 C4 7C 

[2019-11-14 10:38:27.347]# RECV HEX>
FF FF FF FF FF FF FF FF FF FF FF FF FF FF 06 03 02 1D 9A 84 BF 

[2019-11-14 10:38:27.363]# SEND HEX>
06 03 00 04 00 01 C4 7C 

[2019-11-14 10:38:27.448]# RECV HEX>
FF FF FF FF FF FF FF FF FF FF FF FF FF FF 06 03 02 1D 30 04 C0 

[2019-11-14 10:38:27.492]# SEND HEX>
06 03 00 04 00 01 C4 7C 

[2019-11-14 10:38:27.530]# RECV HEX>
06 03 02 1D 30 04 C0 

[2019-11-14 10:38:27.598]# SEND HEX>
06 03 00 04 00 01 C4 7C 

[2019-11-14 10:38:27.664]# RECV HEX>
D0 02 1D 0B 45 13 

[2019-11-14 10:38:27.713]# SEND HEX>
06 03 00 04 00 01 C4 7C 

[2019-11-14 10:38:27.780]# RECV HEX>
FF FF FF FF FF FF FF FF FF FF FF FF FF FF 06 03 02 1D 0B 45 13 

[2019-11-14 10:38:27.830]# SEND HEX>
06 03 00 04 00 01 C4 7C 

[2019-11-14 10:38:27.897]# RECV HEX>
FF FF FF FF FF FF FF FF FF FF FF FF FF FF 06 03 02 1D 0B 45 13 

[2019-11-14 10:38:27.929]# SEND HEX>
06 03 00 04 00 01 C4 7C 

[2019-11-14 10:38:27.997]# RECV HEX>
FF FF FF FF FF FF FF FF FF FF FF FF FF FF 06 03 02 1C D9 C4 DE 

[2019-11-14 10:38:28.045]# SEND HEX>
06 03 00 04 00 01 C4 7C 

[2019-11-14 10:38:28.080]# RECV HEX>
06 03 02 1C D9 C4 DE 

[2019-11-14 10:38:28.148]# SEND HEX>
06 03 00 04 00 01 C4 7C 

[2019-11-14 10:38:28.231]# RECV HEX>
06 03 02 1C D9 C4 DE 

[2019-11-14 10:38:28.261]# SEND HEX>
06 03 00 04 00 01 C4 7C 

[2019-11-14 10:38:28.330]# RECV HEX>
06 03 02 1C 2B 45 5B 

[2019-11-14 10:38:28.378]# SEND HEX>
06 03 00 04 00 01 C4 7C 

[2019-11-14 10:38:28.413]# RECV HEX>
FF FF FF FF FF FF FF FF FF FF FF FF FF FF 06 03 02 1C 2B 45 5B 

[2019-11-14 10:38:28.479]# SEND HEX>
06 03 00 04 00 01 C4 7C 

[2019-11-14 10:38:28.546]# RECV HEX>
FF FF FF FF FF FF FF FF FF FF FF FF FF FF 06 03 02 1C 2B 45 5B 

[2019-11-14 10:38:28.580]# SEND HEX>
06 03 00 04 00 01 C4 7C 

[2019-11-14 10:38:28.663]# RECV HEX>
FF FF FF FF FF FF FF FF FF FF FF FF FF FF 06 03 02 1C 24 05 5F 

[2019-11-14 10:38:28.695]# SEND HEX>
06 03 00 04 00 01 C4 7C 

[2019-11-14 10:38:28.763]# RECV HEX>
FF FF FF FF FF FF FF FF FF FF FF FF FF FF 06 03 02 1C 24 05 5F 

[2019-11-14 10:38:28.813]# SEND HEX>
06 03 00 04 00 01 C4 7C 

[2019-11-14 10:38:28.879]# RECV HEX>
FF FF FF FF FF FF FF FF FF FF FF FF FF FF 06 03 02 1C 24 05 5F 

[2019-11-14 10:38:28.912]# SEND HEX>
06 03 00 04 00 01 C4 7C 

[2019-11-14 10:38:28.979]# RECV HEX>
FF FF FF FF FF FF FF FF FF FF FF FF FF FF 06 03 02 1B 93 47 19 

[2019-11-14 10:38:29.041]# SEND HEX>
06 03 00 04 00 01 C4 7C 

[2019-11-14 10:38:29.080]# RECV HEX>
FF FF FF FF FF FF FF FF FF FF FF FF FF FF 06 03 02 1B 93 47 19 

[2019-11-14 10:38:29.145]# SEND HEX>
06 03 00 04 00 01 C4 7C 

[2019-11-14 10:38:29.212]# RECV HEX>
FF FF FF FF FF FF FF FF FF FF FF FF FF FF 06 03 02 1B 68 06 9A 

[2019-11-14 10:38:29.262]# SEND HEX>
06 03 00 04 00 01 C4 7C 

[2019-11-14 10:38:29.330]# RECV HEX>
06 03 02 1B 68 06 9A 

[2019-11-14 10:38:29.362]# SEND HEX>
06 03 00 04 00 01 C4 7C 

[2019-11-14 10:38:29.429]# RECV HEX>
06 03 02 1B 68 06 9A 

[2019-11-14 10:38:29.479]# SEND HEX>
06 03 00 04 00 01 C4 7C 

[2019-11-14 10:38:29.545]# RECV HEX>
D0 02 1B 7C 06 95 

[2019-11-14 10:38:29.595]# SEND HEX>
06 03 00 04 00 01 C4 7C 

[2019-11-14 10:38:29.677]# RECV HEX>
FF FF FF FF FF FF FF FF FF FF FF FF FF FF 06 03 02 1B 7C 06 95 

[2019-11-14 10:38:29.689]# SEND HEX>
06 03 00 04 00 01 C4 7C 

[2019-11-14 10:38:29.770]# RECV HEX>
FF FF FF FF FF FF FF FF FF FF FF FF FF FF 06 03 02 1B 7C 06 95 

[2019-11-14 10:38:29.811]# SEND HEX>
06 03 00 04 00 01 C4 7C 

[2019-11-14 10:38:29.845]# RECV HEX>
FF FF FF FF FF FF FF FF FF FF FF FF FF FF 06 03 02 1B BD C7 05 

[2019-11-14 10:38:29.912]# SEND HEX>
06 03 00 04 00 01 C4 7C 

[2019-11-14 10:38:29.978]# RECV HEX>
FF FF FF FF FF FF FF FF FF FF FF FF FF FF 06 03 02 1B BD C7 05 

[2019-11-14 10:38:30.040]# SEND HEX>
06 03 00 04 00 01 C4 7C 

[2019-11-14 10:38:30.078]# RECV HEX>
FF FF FF FF FF FF FF FF FF FF FF FF FF FF 06 03 02 1B BD C7 05 

[2019-11-14 10:38:30.146]# SEND HEX>
06 03 00 04 00 01 C4 7C 

[2019-11-14 10:38:30.212]# RECV HEX>
FF FF FF FF FF FF FF FF FF FF FF FF FF FF 06 03 02 1B DE 87 2C 

[2019-11-14 10:38:30.261]# SEND HEX>
06 03 00 04 00 01 C4 7C 

[2019-11-14 10:38:30.328]# RECV HEX>
06 03 02 1B DE 87 2C 

[2019-11-14 10:38:30.361]# SEND HEX>
06 03 00 04 00 01 C4 7C 

[2019-11-14 10:38:30.445]# RECV HEX>
06 60 02 1C 4B 45 73 

[2019-11-14 10:38:30.477]# SEND HEX>
06 03 00 04 00 01 C4 7C 

[2019-11-14 10:38:30.547]# RECV HEX>
FF FF FF FF FF FF FF FF FF FF FF FF FF FF 06 03 02 1C 4B 45 73 

[2019-11-14 10:38:30.593]# SEND HEX>
06 03 00 04 00 01 C4 7C 

[2019-11-14 10:38:30.629]# RECV HEX>
FF FF FF FF FF FF FF FF FF FF FF FF FF FF 06 03 02 1C 4B 45 73 

[2019-11-14 10:38:30.695]# SEND HEX>
06 03 00 04 00 01 C4 7C 

[2019-11-14 10:38:30.761]# RECV HEX>
FF FF FF FF FF FF FF FF FF FF FF FF FF FF 06 03 02 1C 79 C4 A6 

[2019-11-14 10:38:30.810]# SEND HEX>
06 03 00 04 00 01 C4 7C 

[2019-11-14 10:38:30.895]# RECV HEX>
06 03 02 1C 79 C4 A6 

[2019-11-14 10:38:30.910]# SEND HEX>
06 03 00 04 00 01 C4 7C 

[2019-11-14 10:38:30.995]# RECV HEX>
D0 02 1C 79 C4 A6 

[2019-11-14 10:38:31.026]# SEND HEX>
06 03 00 04 00 01 C4 7C 

[2019-11-14 10:38:31.094]# RECV HEX>
06 03 02 1C 97 44 EA 

[2019-11-14 10:38:31.127]# SEND HEX>
06 03 00 04 00 01 C4 7C 

[2019-11-14 10:38:31.210]# RECV HEX>
06 03 02 1C 97 44 EA 

[2019-11-14 10:38:31.243]# SEND HEX>
06 03 00 04 00 01 C4 7C 

[2019-11-14 10:38:31.310]# RECV HEX>
06 03 02 1C 97 44 EA 

[2019-11-14 10:38:31.360]# SEND HEX>
06 03 00 04 00 01 C4 7C 

[2019-11-14 10:38:31.427]# RECV HEX>
06 03 02 1C 6A 85 6B 

[2019-11-14 10:38:31.476]# SEND HEX>
06 03 00 04 00 01 C4 7C 

[2019-11-14 10:38:31.510]# RECV HEX>
FF FF FF FF FF FF FF FF FF FF FF FF FF FF 06 03 02 1C 6A 85 6B 

[2019-11-14 10:38:31.576]# SEND HEX>
06 03 00 04 00 01 C4 7C 

[2019-11-14 10:38:31.643]# RECV HEX>
FF FF FF FF FF FF FF FF FF FF FF FF FF FF 06 03 02 1C 1D C5 4D 

[2019-11-14 10:38:31.677]# SEND HEX>
06 03 00 04 00 01 C4 7C 

[2019-11-14 10:38:31.743]# RECV HEX>
FF FF FF FF FF FF FF FF FF FF FF FF FF FF 06 03 02 1C 1D C5 4D 

[2019-11-14 10:38:31.793]# SEND HEX>
06 03 00 04 00 01 C4 7C 

[2019-11-14 10:38:31.877]# RECV HEX>
FF FF FF FF FF FF FF FF FF FF FF FF FF FF 06 03 02 1C 1D C5 4D 

[2019-11-14 10:38:31.892]# SEND HEX>
06 03 00 04 00 01 C4 7C 

[2019-11-14 10:38:31.977]# RECV HEX>
FF FF FF FF FF FF FF FF FF FF FF FF FF FF 06 03 02 1B EF 46 F8 

[2019-11-14 10:38:32.009]# SEND HEX>
06 03 00 04 00 01 C4 7C 

[2019-11-14 10:38:32.077]# RECV HEX>
06 03 02 1B EF 46 F8 

[2019-11-14 10:38:32.125]# SEND HEX>
06 03 00 04 00 01 C4 7C 

[2019-11-14 10:38:32.193]# RECV HEX>
06 03 02 1B EF 46 F8 

[2019-11-14 10:38:32.226]# SEND HEX>
06 03 00 04 00 01 C4 7C 

[2019-11-14 10:38:32.293]# RECV HEX>
06 03 02 1B 16 86 BA 

[2019-11-14 10:38:32.343]# SEND HEX>
06 03 00 04 00 01 C4 7C 

[2019-11-14 10:38:32.410]# RECV HEX>
06 03 02 1B 16 86 BA 

[2019-11-14 10:38:32.444]# SEND HEX>
06 03 00 04 00 01 C4 7C 

[2019-11-14 10:38:32.526]# RECV HEX>
02 C0 64 64 BA 

[2019-11-14 10:38:32.569]# SEND HEX>
06 03 00 04 00 01 C4 7C 

[2019-11-14 10:38:32.626]# RECV HEX>
06 03 02 1A EE 86 A8 

[2019-11-14 10:38:32.659]# SEND HEX>
06 03 00 04 00 01 C4 7C 

[2019-11-14 10:38:32.726]# RECV HEX>
06 03 02 1A EE 86 A8 

[2019-11-14 10:38:32.776]# SEND HEX>
06 03 00 04 00 01 C4 7C 

[2019-11-14 10:38:32.859]# RECV HEX>
06 03 02 1A EE 86 A8 

[2019-11-14 10:38:32.889]# SEND HEX>
06 03 00 04 00 01 C4 7C 

[2019-11-14 10:38:32.959]# RECV HEX>
06 03 02 1A E2 86 AD 

[2019-11-14 10:38:32.991]# SEND HEX>
06 03 00 04 00 01 C4 7C 

[2019-11-14 10:38:33.059]# RECV HEX>
FF FF FF FF FF FF FF FF FF FF FF FF FF FF 06 03 02 1A E2 86 AD 

[2019-11-14 10:38:33.108]# SEND HEX>
06 03 00 04 00 01 C4 7C 

[2019-11-14 10:38:33.142]# RECV HEX>
FF FF FF FF FF FF FF FF FF FF FF FF FF FF 06 03 02 1A E2 86 AD 

[2019-11-14 10:38:33.208]# SEND HEX>
06 03 00 04 00 01 C4 7C 

[2019-11-14 10:38:33.275]# RECV HEX>
FF FF FF FF FF FF FF FF FF FF FF FF FF FF 06 03 02 1B 1E 87 7C 

[2019-11-14 10:38:33.325]# SEND HEX>
06 03 00 04 00 01 C4 7C 

[2019-11-14 10:38:33.409]# RECV HEX>
06 03 02 1B 1E 87 7C 

[2019-11-14 10:38:33.438]# SEND HEX>
06 03 00 04 00 01 C4 7C 

[2019-11-14 10:38:33.508]# RECV HEX>
06 03 02 1B 51 C6 88 

[2019-11-14 10:38:33.541]# SEND HEX>
06 03 00 04 00 01 C4 7C 

[2019-11-14 10:38:33.609]# RECV HEX>
06 03 02 1B 51 C6 88 

[2019-11-14 10:38:33.658]# SEND HEX>
06 03 00 04 00 01 C4 7C 

[2019-11-14 10:38:33.742]# RECV HEX>
06 03 02 1B 51 C6 88 

[2019-11-14 10:38:33.772]# SEND HEX>
06 03 00 04 00 01 C4 7C 

[2019-11-14 10:38:33.842]# RECV HEX>
06 03 02 1B 15 C6 BB 

[2019-11-14 10:38:33.891]# SEND HEX>
06 03 00 04 00 01 C4 7C 

[2019-11-14 10:38:33.958]# RECV HEX>
FF FF FF FF FF FF FF FF FF FF FF FF FF FF 06 03 02 1B 15 C6 BB 

[2019-11-14 10:38:33.991]# SEND HEX>
06 03 00 04 00 01 C4 7C 

[2019-11-14 10:38:34.058]# RECV HEX>
FF FF FF FF FF FF FF FF FF FF FF FF FF FF 06 03 02 1B 15 C6 BB 

[2019-11-14 10:38:34.121]# SEND HEX>
06 03 00 04 00 01 C4 7C 

[2019-11-14 10:38:34.158]# RECV HEX>
FF FF FF FF FF FF FF FF FF FF FF FF FF FF 06 03 02 1B 20 06 AC 

[2019-11-14 10:38:34.208]# SEND HEX>
06 03 00 04 00 01 C4 7C 

[2019-11-14 10:38:34.274]# RECV HEX>
06 03 02 1B 20 06 AC 

[2019-11-14 10:38:34.324]# SEND HEX>
06 03 00 04 00 01 C4 7C 

[2019-11-14 10:38:34.391]# RECV HEX>
06 03 02 1B 20 06 AC 

[2019-11-14 10:38:34.441]# SEND HEX>
06 03 00 04 00 01 C4 7C 

[2019-11-14 10:38:34.508]# RECV HEX>
06 03 02 1B 63 47 5D 

[2019-11-14 10:38:34.540]# SEND HEX>
06 03 00 04 00 01 C4 7C 

[2019-11-14 10:38:34.608]# RECV HEX>
FF FF FF FF FF FF FF FF FF FF FF FF FF FF 06 03 02 1B 63 47 5D 

[2019-11-14 10:38:34.656]# SEND HEX>
06 03 00 04 00 01 C4 7C 

[2019-11-14 10:38:34.691]# RECV HEX>
FF FF FF FF FF FF FF FF FF FF FF FF FF FF 06 03 02 1B 9A 87 1F 

[2019-11-14 10:38:34.757]# SEND HEX>
06 03 00 04 00 01 C4 7C 

[2019-11-14 10:38:34.824]# RECV HEX>
FF FF FF FF FF FF FF FF FF FF FF FF FF FF 06 03 02 1B 9A 87 1F 

[2019-11-14 10:38:34.874]# SEND HEX>
06 03 00 04 00 01 C4 7C 

[2019-11-14 10:38:34.941]# RECV HEX>
FF FF FF FF FF FF FF FF FF FF FF FF FF FF 06 03 02 1B 9A 87 1F 

[2019-11-14 10:38:34.974]# SEND HEX>
06 03 00 04 00 01 C4 7C 

[2019-11-14 10:38:35.040]# RECV HEX>
FF FF FF FF FF FF FF FF FF FF FF FF FF FF 06 03 02 1B 70 06 90 

[2019-11-14 10:38:35.102]# SEND HEX>
06 03 00 04 00 01 C4 7C 

[2019-11-14 10:38:35.140]# RECV HEX>
06 03 02 1B 70 06 90 

[2019-11-14 10:38:35.208]# SEND HEX>
06 03 00 04 00 01 C4 7C 

[2019-11-14 10:38:35.274]# RECV HEX>
06 03 02 1B 70 06 90 

[2019-11-14 10:38:35.323]# SEND HEX>
06 03 00 04 00 01 C4 7C 

[2019-11-14 10:38:35.407]# RECV HEX>
D0 02 1B 98 06 DE 

[2019-11-14 10:38:35.436]# SEND HEX>
06 03 00 04 00 01 C4 7C 

[2019-11-14 10:38:35.507]# RECV HEX>
06 03 02 1B 98 06 DE 

[2019-11-14 10:38:35.539]# SEND HEX>
06 03 00 04 00 01 C4 7C 

[2019-11-14 10:38:35.607]# RECV HEX>
06 03 02 1B 98 06 DE 

[2019-11-14 10:38:35.655]# SEND HEX>
06 03 00 04 00 01 C4 7C 

[2019-11-14 10:38:35.690]# RECV HEX>
06 03 02 1B E9 C6 FA 

[2019-11-14 10:38:35.757]# SEND HEX>
06 03 00 04 00 01 C4 7C 

[2019-11-14 10:38:35.840]# RECV HEX>
06 03 02 1B E9 C6 FA 

[2019-11-14 10:38:35.869]# SEND HEX>
06 03 00 04 00 01 C4 7C 

[2019-11-14 10:38:35.940]# RECV HEX>
D0 02 1C 36 85 52 

[2019-11-14 10:38:35.973]# SEND HEX>
06 03 00 04 00 01 C4 7C 

[2019-11-14 10:38:36.041]# RECV HEX>
06 03 02 1C 36 85 52 

[2019-11-14 10:38:36.089]# SEND HEX>
06 03 00 04 00 01 C4 7C 

[2019-11-14 10:38:36.156]# RECV HEX>
06 03 02 1C 36 85 52 

[2019-11-14 10:38:36.190]# SEND HEX>
06 03 00 04 00 01 C4 7C 

[2019-11-14 10:38:36.291]# RECV HEX>
D0 02 1C 6B 44 AB 

[2019-11-14 10:38:36.322]# SEND HEX>
06 03 00 04 00 01 C4 7C 

[2019-11-14 10:38:36.389]# RECV HEX>
FF FF FF FF FF FF FF FF FF FF FF FF FF FF 06 03 02 1C 6B 44 AB 

[2019-11-14 10:38:36.439]# SEND HEX>
06 03 00 04 00 01 C4 7C 

[2019-11-14 10:38:36.506]# RECV HEX>
FF FF FF FF FF FF FF FF FF FF FF FF FF FF 06 03 02 1C 6B 44 AB 

[2019-11-14 10:38:36.538]# SEND HEX>
06 03 00 04 00 01 C4 7C 

[2019-11-14 10:38:36.606]# RECV HEX>
FF FF FF FF FF FF FF FF FF FF FF FF FF FF 06 03 02 1C 92 84 E9 

[2019-11-14 10:38:36.655]# SEND HEX>
06 03 00 04 00 01 C4 7C 

[2019-11-14 10:38:36.689]# RECV HEX>
FF FF FF FF FF FF FF FF FF FF FF FF FF FF 06 03 02 1C 92 84 E9 

[2019-11-14 10:38:36.756]# SEND HEX>
06 03 00 04 00 01 C4 7C 

[2019-11-14 10:38:36.822]# RECV HEX>
FF FF FF FF FF FF FF FF FF FF FF FF FF FF 06 03 02 1C 92 84 E9 

[2019-11-14 10:38:36.872]# SEND HEX>
06 03 00 04 00 01 C4 7C 

[2019-11-14 10:38:36.956]# RECV HEX>
FF FF FF FF FF FF FF FF FF FF FF FF FF FF 06 03 02 1D 29 C5 0A 

[2019-11-14 10:38:36.973]# SEND HEX>
06 03 00 04 00 01 C4 7C 

[2019-11-14 10:38:37.056]# RECV HEX>
06 03 02 1D 29 C5 0A 

[2019-11-14 10:38:37.085]# SEND HEX>
06 03 00 04 00 01 C4 7C 

[2019-11-14 10:38:37.155]# RECV HEX>
06 03 02 1D 29 C5 0A 

[2019-11-14 10:38:37.205]# SEND HEX>
06 03 00 04 00 01 C4 7C 

[2019-11-14 10:38:37.272]# RECV HEX>
06 03 02 1D 8D C4 B1 

[2019-11-14 10:38:37.304]# SEND HEX>
06 03 00 04 00 01 C4 7C 

[2019-11-14 10:38:37.372]# RECV HEX>
FF FF FF FF FF FF FF FF FF FF FF FF FF FF 06 03 02 1D 8D C4 B1 

[2019-11-14 10:38:37.422]# SEND HEX>
06 03 00 04 00 01 C4 7C 

[2019-11-14 10:38:37.488]# RECV HEX>
FF FF FF FF FF FF FF FF FF FF FF FF FF FF 06 03 02 1D FA 84 97 

[2019-11-14 10:38:37.522]# SEND HEX>
06 03 00 04 00 01 C4 7C 

[2019-11-14 10:38:37.588]# RECV HEX>
FF FF FF FF FF FF FF FF FF FF FF FF FF FF 06 03 02 1D FA 84 97 

[2019-11-14 10:38:37.637]# SEND HEX>
06 03 00 04 00 01 C4 7C 

[2019-11-14 10:38:37.705]# RECV HEX>
FF FF FF FF FF FF FF FF FF FF FF FF FF FF 06 03 02 1D FA 84 97 

[2019-11-14 10:38:37.755]# SEND HEX>
06 03 00 04 00 01 C4 7C 

[2019-11-14 10:38:37.821]# RECV HEX>
FF FF FF FF FF FF FF FF FF FF FF FF FF FF 06 03 02 1E 0D C5 E1 

[2019-11-14 10:38:37.855]# SEND HEX>
06 03 00 04 00 01 C4 7C 

[2019-11-14 10:38:37.921]# RECV HEX>
FF FF FF FF FF FF FF FF FF FF FF FF FF FF 06 03 02 1E 0D C5 E1 

[2019-11-14 10:38:37.955]# SEND HEX>
06 03 00 04 00 01 C4 7C 

[2019-11-14 10:38:38.038]# RECV HEX>
FF FF FF FF FF FF FF FF FF FF FF FF FF FF 06 03 02 1E 0D C5 E1 

[2019-11-14 10:38:38.070]# SEND HEX>
06 03 00 04 00 01 C4 7C 

[2019-11-14 10:38:38.138]# RECV HEX>
FF FF FF FF FF FF FF FF FF FF FF FF FF FF 06 03 02 1D A7 45 6E 

[2019-11-14 10:38:38.186]# SEND HEX>
06 03 00 04 00 01 C4 7C 

[2019-11-14 10:38:38.222]# RECV HEX>
D0 02 1D A7 45 6E 

[2019-11-14 10:38:38.289]# SEND HEX>
06 03 00 04 00 01 C4 7C 

[2019-11-14 10:38:38.354]# RECV HEX>
06 03 02 1D A7 45 6E 

[2019-11-14 10:38:38.403]# SEND HEX>
06 03 00 04 00 01 C4 7C 

[2019-11-14 10:38:38.439]# RECV HEX>
D0 02 1D 72 84 F1 

[2019-11-14 10:38:38.505]# SEND HEX>
06 03 00 04 00 01 C4 7C 

[2019-11-14 10:38:38.571]# RECV HEX>
FF FF FF FF FF FF FF FF FF FF FF FF FF FF 06 03 02 1D 72 84 F1 

[2019-11-14 10:38:38.621]# SEND HEX>
06 03 00 04 00 01 C4 7C 

[2019-11-14 10:38:38.687]# RECV HEX>
FF FF FF FF FF FF FF FF FF FF FF FF FF FF 06 03 02 1D 72 84 F1 

[2019-11-14 10:38:38.737]# SEND HEX>
06 03 00 04 00 01 C4 7C 

[2019-11-14 10:38:38.804]# RECV HEX>
FF FF FF FF FF FF FF FF FF FF FF FF FF FF 06 03 02 1C C7 44 D6 

[2019-11-14 10:38:38.837]# SEND HEX>
06 03 00 04 00 01 C4 7C 

[2019-11-14 10:38:38.904]# RECV HEX>
06 03 02 1C C7 44 D6 

[2019-11-14 10:38:38.954]# SEND HEX>
06 03 00 04 00 01 C4 7C 

[2019-11-14 10:38:39.020]# RECV HEX>
06 03 02 1C 41 C5 74 

[2019-11-14 10:38:39.070]# SEND HEX>
06 03 00 04 00 01 C4 7C 

[2019-11-14 10:38:39.137]# RECV HEX>
06 03 02 1C 41 C5 74 

[2019-11-14 10:38:39.179]# SEND HEX>
06 03 00 04 00 01 C4 7C 

[2019-11-14 10:38:39.237]# RECV HEX>
06 03 02 1C 41 C5 74 

[2019-11-14 10:38:39.270]# SEND HEX>
06 03 00 04 00 01 C4 7C 

[2019-11-14 10:38:39.337]# RECV HEX>
06 03 02 1C 86 84 E6 

[2019-11-14 10:38:39.386]# SEND HEX>
06 03 00 04 00 01 C4 7C 

[2019-11-14 10:38:39.453]# RECV HEX>
06 03 02 1C 86 84 E6 

[2019-11-14 10:38:39.487]# SEND HEX>
06 03 00 04 00 01 C4 7C 

[2019-11-14 10:38:39.571]# RECV HEX>
06 03 02 1C 86 84 E6 

[2019-11-14 10:38:39.602]# SEND HEX>
06 03 00 04 00 01 C4 7C 

[2019-11-14 10:38:39.670]# RECV HEX>
06 03 02 1C 33 45 51 

[2019-11-14 10:38:39.720]# SEND HEX>
06 03 00 04 00 01 C4 7C 

[2019-11-14 10:38:39.754]# RECV HEX>
FF FF FF FF FF FF FF FF FF FF FF FF FF FF 06 03 02 1C 33 45 51 

[2019-11-14 10:38:39.820]# SEND HEX>
06 03 00 04 00 01 C4 7C 

[2019-11-14 10:38:39.886]# RECV HEX>
FF FF FF FF FF FF FF FF FF FF FF FF FF FF 06 03 02 1C 33 45 51 

[2019-11-14 10:38:39.936]# SEND HEX>
06 03 00 04 00 01 C4 7C 

[2019-11-14 10:38:40.020]# RECV HEX>
FF FF FF FF FF FF FF FF FF FF FF FF FF FF 06 03 02 1C BE 85 34 

[2019-11-14 10:38:40.035]# SEND HEX>
06 03 00 04 00 01 C4 7C 

[2019-11-14 10:38:40.120]# RECV HEX>
0C 03 02 1C BE 85 34 

[2019-11-14 10:38:40.151]# SEND HEX>
06 03 00 04 00 01 C4 7C 

[2019-11-14 10:38:40.219]# RECV HEX>
06 03 02 1C BE 85 34 

[2019-11-14 10:38:40.253]# SEND HEX>
06 03 00 04 00 01 C4 7C 

[2019-11-14 10:38:40.319]# RECV HEX>
06 03 02 1C BE 85 34 

[2019-11-14 10:38:40.369]# SEND HEX>
06 03 00 04 00 01 C4 7C 

[2019-11-14 10:38:40.436]# RECV HEX>
02 E4 2B 34 

[2019-11-14 10:38:40.486]# SEND HEX>
06 03 00 04 00 01 C4 7C 

[2019-11-14 10:38:40.552]# RECV HEX>
06 03 02 1C 72 85 61 

[2019-11-14 10:38:40.586]# SEND HEX>
06 03 00 04 00 01 C4 7C 

[2019-11-14 10:38:40.652]# RECV HEX>
FF FF FF FF FF FF FF FF FF FF FF FF FF FF 06 03 02 1C 72 85 61 

[2019-11-14 10:38:40.715]# SEND HEX>
06 03 00 04 00 01 C4 7C 

[2019-11-14 10:38:40.752]# RECV HEX>
FF FF FF FF FF FF FF FF FF FF FF FF FF FF 06 03 02 1C 72 85 61 

[2019-11-14 10:38:40.802]# SEND HEX>
06 03 00 04 00 01 C4 7C 

[2019-11-14 10:38:40.869]# RECV HEX>
FF FF FF FF FF FF FF FF FF FF FF FF FF FF 06 03 02 1C DC 04 DD 

[2019-11-14 10:38:40.918]# SEND HEX>
06 03 00 04 00 01 C4 7C 

[2019-11-14 10:38:40.985]# RECV HEX>
FF FF FF FF FF FF FF FF FF FF FF FF FF FF 06 03 02 1C DC 04 DD 

[2019-11-14 10:38:41.035]# SEND HEX>
06 03 00 04 00 01 C4 7C 

[2019-11-14 10:38:41.102]# RECV HEX>
FF FF FF FF FF FF FF FF FF FF FF FF FF FF 06 03 02 1C DC 04 DD 

[2019-11-14 10:38:41.135]# SEND HEX>
06 03 00 04 00 01 C4 7C 

[2019-11-14 10:38:41.202]# RECV HEX>
FF FF FF FF FF FF FF FF FF FF FF FF FF FF 06 03 02 1C AC 05 39 

[2019-11-14 10:38:41.250]# SEND HEX>
06 03 00 04 00 01 C4 7C 

[2019-11-14 10:38:41.318]# RECV HEX>
FF FF FF FF FF FF FF FF FF FF FF FF FF FF 06 03 02 1C AC 05 39 

[2019-11-14 10:38:41.368]# SEND HEX>
06 03 00 04 00 01 C4 7C 

[2019-11-14 10:38:41.402]# RECV HEX>
FF FF FF FF FF FF FF FF FF FF FF FF FF FF 06 03 02 1C AC 05 39 

[2019-11-14 10:38:41.469]# SEND HEX>
06 03 00 04 00 01 C4 7C 

[2019-11-14 10:38:41.552]# RECV HEX>
FF FF FF FF FF FF FF FF FF FF FF FF FF FF 06 03 02 1C D9 C4 DE 

[2019-11-14 10:38:41.564]# SEND HEX>
06 03 00 04 00 01 C4 7C 

[2019-11-14 10:38:41.652]# RECV HEX>
06 03 02 1C D9 C4 DE 

[2019-11-14 10:38:41.681]# SEND HEX>
06 03 00 04 00 01 C4 7C 

[2019-11-14 10:38:41.751]# RECV HEX>
D0 02 1C D9 C4 DE 

[2019-11-14 10:38:41.785]# SEND HEX>
06 03 00 04 00 01 C4 7C 

[2019-11-14 10:38:41.851]# RECV HEX>
06 60 02 1C A4 04 FF 

[2019-11-14 10:38:41.901]# SEND HEX>
06 03 00 04 00 01 C4 7C 

[2019-11-14 10:38:41.968]# RECV HEX>
FF FF FF FF FF FF FF FF FF FF FF FF FF FF 06 03 02 1C A4 04 FF 

[2019-11-14 10:38:42.002]# SEND HEX>
06 03 00 04 00 01 C4 7C 

[2019-11-14 10:38:42.085]# RECV HEX>
FF FF FF FF FF FF FF FF FF FF FF FF FF FF 06 03 02 1C D4 05 1B 

[2019-11-14 10:38:42.115]# SEND HEX>
06 03 00 04 00 01 C4 7C 

[2019-11-14 10:38:42.184]# RECV HEX>
FF FF FF FF FF FF FF FF FF FF FF FF FF FF 06 03 02 1C D4 05 1B 

[2019-11-14 10:38:42.246]# SEND HEX>
06 03 00 04 00 01 C4 7C 

[2019-11-14 10:38:42.285]# RECV HEX>
FF FF FF FF FF FF FF FF FF FF FF FF FF FF 06 03 02 1C D4 05 1B 

[2019-11-14 10:38:42.334]# SEND HEX>
06 03 00 04 00 01 C4 7C 

[2019-11-14 10:38:42.403]# RECV HEX>
FF FF FF FF FF FF FF FF FF FF FF FF FF FF 06 03 02 1C 27 45 5E 

[2019-11-14 10:38:42.450]# SEND HEX>
06 03 00 04 00 01 C4 7C 

[2019-11-14 10:38:42.517]# RECV HEX>
06 03 02 1C 27 45 5E 

[2019-11-14 10:38:42.551]# SEND HEX>
06 03 00 04 00 01 C4 7C 

[2019-11-14 10:38:42.617]# RECV HEX>
06 03 02 1C 27 45 5E 

[2019-11-14 10:38:42.667]# SEND HEX>
06 03 00 04 00 01 C4 7C 

[2019-11-14 10:38:42.746]# RECV HEX>
06 03 02 1C 4B 45 73 

[2019-11-14 10:38:42.767]# SEND HEX>
06 03 00 04 00 01 C4 7C 

[2019-11-14 10:38:42.834]# RECV HEX>
FF FF FF FF FF FF FF FF FF FF FF FF FF FF 06 03 02 1C 4B 45 73 

[2019-11-14 10:38:42.883]# SEND HEX>
06 03 00 04 00 01 C4 7C 

[2019-11-14 10:38:42.950]# RECV HEX>
FF FF FF FF FF FF FF FF FF FF FF FF FF FF 06 03 02 1C 4B 45 73 

[2019-11-14 10:38:43.000]# SEND HEX>
06 03 00 04 00 01 C4 7C 

[2019-11-14 10:38:43.084]# RECV HEX>
FF FF FF FF FF FF FF FF FF FF FF FF FF FF 06 03 02 1B E2 87 3D 

[2019-11-14 10:38:43.096]# SEND HEX>
06 03 00 04 00 01 C4 7C 

[2019-11-14 10:38:43.184]# RECV HEX>
FF FF FF FF FF FF FF FF FF FF FF FF FF FF 06 03 02 1B E2 87 3D 

[2019-11-14 10:38:43.216]# SEND HEX>
06 03 00 04 00 01 C4 7C 

[2019-11-14 10:38:43.283]# RECV HEX>
FF FF FF FF FF FF FF FF FF FF FF FF FF FF 06 03 02 1B E2 87 3D 

[2019-11-14 10:38:43.332]# SEND HEX>
06 03 00 04 00 01 C4 7C 

[2019-11-14 10:38:43.368]# RECV HEX>
FF FF FF FF FF FF FF FF FF FF FF FF FF FF 06 03 02 1B B0 06 C0 

[2019-11-14 10:38:43.435]# SEND HEX>
06 03 00 04 00 01 C4 7C 

[2019-11-14 10:38:43.517]# RECV HEX>
D0 02 1B B0 06 C0 

[2019-11-14 10:38:43.549]# SEND HEX>
06 03 00 04 00 01 C4 7C 

[2019-11-14 10:38:43.616]# RECV HEX>
06 03 02 1B F9 C7 36 

[2019-11-14 10:38:43.649]# SEND HEX>
06 03 00 04 00 01 C4 7C 

[2019-11-14 10:38:43.716]# RECV HEX>
06 03 02 1B F9 C7 36 

[2019-11-14 10:38:43.778]# SEND HEX>
06 03 00 04 00 01 C4 7C 

[2019-11-14 10:38:43.833]# RECV HEX>
06 03 02 1B F9 C7 36 

[2019-11-14 10:38:43.866]# SEND HEX>
06 03 00 04 00 01 C4 7C 

[2019-11-14 10:38:43.933]# RECV HEX>
D0 02 1B 7D C7 55 

[2019-11-14 10:38:43.982]# SEND HEX>
06 03 00 04 00 01 C4 7C 

[2019-11-14 10:38:44.066]# RECV HEX>
FF FF FF FF FF FF FF FF FF FF FF FF FF FF 06 03 02 1B 7D C7 55 

[2019-11-14 10:38:44.097]# SEND HEX>
06 03 00 04 00 01 C4 7C 

[2019-11-14 10:38:44.166]# RECV HEX>
FF FF FF FF FF FF FF FF FF FF FF FF FF FF 06 03 02 1B 7D C7 55 

[2019-11-14 10:38:44.198]# SEND HEX>
06 03 00 04 00 01 C4 7C 

[2019-11-14 10:38:44.266]# RECV HEX>
FF FF FF FF FF FF FF FF FF FF FF FF FF FF 06 03 02 1C 05 C5 47 

[2019-11-14 10:38:44.299]# SEND HEX>
06 03 00 04 00 01 C4 7C 

[2019-11-14 10:38:44.366]# RECV HEX>
FF FF FF FF FF FF FF FF FF FF FF FF FF FF 06 03 02 1C 05 C5 47 

[2019-11-14 10:38:44.415]# SEND HEX>
06 03 00 04 00 01 C4 7C 

[2019-11-14 10:38:44.482]# RECV HEX>
FF FF FF FF FF FF FF FF FF FF FF FF FF FF 06 03 02 1C 05 C5 47 

[2019-11-14 10:38:44.532]# SEND HEX>
06 03 00 04 00 01 C4 7C 

[2019-11-14 10:38:44.599]# RECV HEX>
FF FF FF FF FF FF FF FF FF FF FF FF FF FF 06 03 02 1C 1F 44 8C 

[2019-11-14 10:38:44.627]# SEND HEX>
06 03 00 04 00 01 C4 7C 

[2019-11-14 10:38:44.716]# RECV HEX>
06 03 02 1C 1F 44 8C 

[2019-11-14 10:38:44.747]# SEND HEX>
06 03 00 04 00 01 C4 7C 

[2019-11-14 10:38:44.815]# RECV HEX>
06 03 02 1C 1F 44 8C 

[2019-11-14 10:38:44.849]# SEND HEX>
06 03 00 04 00 01 C4 7C 

[2019-11-14 10:38:44.915]# RECV HEX>
D0 02 1C 32 84 91 

[2019-11-14 10:38:44.964]# SEND HEX>
06 03 00 04 00 01 C4 7C 

[2019-11-14 10:38:45.032]# RECV HEX>
FF FF FF FF FF FF FF FF FF FF FF FF FF FF 06 03 02 1C 32 84 91 

[2019-11-14 10:38:45.082]# SEND HEX>
06 03 00 04 00 01 C4 7C 

[2019-11-14 10:38:45.148]# RECV HEX>
FF FF FF FF FF FF FF FF FF FF FF FF FF FF 06 03 02 1C 0C 05 41 

[2019-11-14 10:38:45.198]# SEND HEX>
06 03 00 04 00 01 C4 7C 

[2019-11-14 10:38:45.266]# RECV HEX>
FF FF FF FF FF FF FF FF FF FF FF FF FF FF 06 03 02 1C 0C 05 41 

[2019-11-14 10:38:45.313]# SEND HEX>
06 03 00 04 00 01 C4 7C 

[2019-11-14 10:38:45.348]# RECV HEX>
FF FF FF FF FF FF FF FF FF FF FF FF FF FF 06 03 02 1C 0C 05 41 

[2019-11-14 10:38:45.415]# SEND HEX>
06 03 00 04 00 01 C4 7C 

[2019-11-14 10:38:45.482]# RECV HEX>
FF FF FF FF FF FF FF FF FF FF FF FF FF FF 06 03 02 1B D9 C6 EE 

[2019-11-14 10:38:45.531]# SEND HEX>
06 03 00 04 00 01 C4 7C 

[2019-11-14 10:38:45.598]# RECV HEX>
06 03 02 1B D9 C6 EE 

[2019-11-14 10:38:45.632]# SEND HEX>
06 03 00 04 00 01 C4 7C 

[2019-11-14 10:38:45.715]# RECV HEX>
06 03 02 1B D9 C6 EE 

[2019-11-14 10:38:45.746]# SEND HEX>
06 03 00 04 00 01 C4 7C 

[2019-11-14 10:38:45.814]# RECV HEX>
06 03 02 1B C7 46 E6 

[2019-11-14 10:38:45.848]# SEND HEX>
06 03 00 04 00 01 C4 7C 

[2019-11-14 10:38:45.931]# RECV HEX>
D0 02 1B C7 46 E6 

[2019-11-14 10:38:45.963]# SEND HEX>
06 03 00 04 00 01 C4 7C 

[2019-11-14 10:38:46.031]# RECV HEX>
D0 02 1B C7 46 E6 

[2019-11-14 10:38:46.064]# SEND HEX>
06 03 00 04 00 01 C4 7C 

[2019-11-14 10:38:46.148]# RECV HEX>
06 03 02 1B B0 06 C0 

[2019-11-14 10:38:46.180]# SEND HEX>
06 03 00 04 00 01 C4 7C 

[2019-11-14 10:38:46.247]# RECV HEX>
06 03 02 1B B0 06 C0 

[2019-11-14 10:38:46.310]# SEND HEX>
06 03 00 04 00 01 C4 7C 

[2019-11-14 10:38:46.364]# RECV HEX>
06 03 02 1B B0 06 C0 

[2019-11-14 10:38:46.397]# SEND HEX>
06 03 00 04 00 01 C4 7C 

[2019-11-14 10:38:46.464]# RECV HEX>
06 03 02 1A CD C7 71 

[2019-11-14 10:38:46.514]# SEND HEX>
06 03 00 04 00 01 C4 7C 

[2019-11-14 10:38:46.580]# RECV HEX>
FF FF FF FF FF FF FF FF FF FF FF FF FF FF 06 03 02 1A CD C7 71 

[2019-11-14 10:38:46.630]# SEND HEX>
06 03 00 04 00 01 C4 7C 

[2019-11-14 10:38:46.697]# RECV HEX>
FF FF FF FF FF FF FF FF FF FF FF FF FF FF 06 03 02 1A C7 47 76 

[2019-11-14 10:38:46.729]# SEND HEX>
06 03 00 04 00 01 C4 7C 

[2019-11-14 10:38:46.797]# RECV HEX>
06 03 02 1A C7 47 76 

[2019-11-14 10:38:46.830]# SEND HEX>
06 03 00 04 00 01 C4 7C 

[2019-11-14 10:38:46.914]# RECV HEX>
06 03 02 1A C7 47 76 

[2019-11-14 10:38:46.943]# SEND HEX>
06 03 00 04 00 01 C4 7C 

[2019-11-14 10:38:47.013]# RECV HEX>
06 03 02 1A C3 46 B5 

[2019-11-14 10:38:47.063]# SEND HEX>
06 03 00 04 00 01 C4 7C 

[2019-11-14 10:38:47.130]# RECV HEX>
FF FF FF FF FF FF FF FF FF FF FF FF FF FF 06 03 02 1A C3 46 B5 

[2019-11-14 10:38:47.163]# SEND HEX>
06 03 00 04 00 01 C4 7C 

[2019-11-14 10:38:47.230]# RECV HEX>
FF FF FF FF FF FF FF FF FF FF FF FF FF FF 06 03 02 1A C3 46 B5 

[2019-11-14 10:38:47.280]# SEND HEX>
06 03 00 04 00 01 C4 7C 

[2019-11-14 10:38:47.346]# RECV HEX>
FF FF FF FF FF FF FF FF FF FF FF FF FF FF 06 03 02 1B 48 07 42 

[2019-11-14 10:38:47.380]# SEND HEX>
06 03 00 04 00 01 C4 7C 

[2019-11-14 10:38:47.446]# RECV HEX>
06 03 02 1B 48 07 42 

[2019-11-14 10:38:47.496]# SEND HEX>
06 03 00 04 00 01 C4 7C 

[2019-11-14 10:38:47.580]# RECV HEX>
06 03 02 1B 48 07 42 

[2019-11-14 10:38:47.609]# SEND HEX>
06 03 00 04 00 01 C4 7C 

[2019-11-14 10:38:47.680]# RECV HEX>
D0 02 1B 48 07 42 

[2019-11-14 10:38:47.712]# SEND HEX>
06 03 00 04 00 01 C4 7C 

[2019-11-14 10:38:47.779]# RECV HEX>
D0 02 1B 48 07 42 

[2019-11-14 10:38:47.828]# SEND HEX>
06 03 00 04 00 01 C4 7C 

[2019-11-14 10:38:47.896]# RECV HEX>
06 03 02 1B 48 07 42 

[2019-11-14 10:38:47.923]# SEND HEX>
06 03 00 04 00 01 C4 7C 

[2019-11-14 10:38:48.012]# RECV HEX>
06 03 02 1B 11 C7 78 

[2019-11-14 10:38:48.045]# SEND HEX>
06 03 00 04 00 01 C4 7C 

[2019-11-14 10:38:48.113]# RECV HEX>
06 03 02 1B 11 C7 78 

[2019-11-14 10:38:48.146]# SEND HEX>
06 03 00 04 00 01 C4 7C 

[2019-11-14 10:38:48.212]# RECV HEX>
06 03 02 1A CF 46 B0 

[2019-11-14 10:38:48.262]# SEND HEX>
06 03 00 04 00 01 C4 7C 

[2019-11-14 10:38:48.329]# RECV HEX>
06 03 02 1A CF 46 B0 

[2019-11-14 10:38:48.362]# SEND HEX>
06 03 00 04 00 01 C4 7C 

[2019-11-14 10:38:48.446]# RECV HEX>
D0 02 1A CF 46 B0 

[2019-11-14 10:38:48.478]# SEND HEX>
06 03 00 04 00 01 C4 7C 

[2019-11-14 10:38:48.545]# RECV HEX>
06 03 02 1B 1F 46 BC 

[2019-11-14 10:38:48.595]# SEND HEX>
06 03 00 04 00 01 C4 7C 

[2019-11-14 10:38:48.662]# RECV HEX>
06 03 02 1B 1F 46 BC 

[2019-11-14 10:38:48.695]# SEND HEX>
06 03 00 04 00 01 C4 7C 

[2019-11-14 10:38:48.762]# RECV HEX>
06 03 02 1B 1F 46 BC 

[2019-11-14 10:38:48.824]# SEND HEX>
06 03 00 04 00 01 C4 7C 

[2019-11-14 10:38:48.862]# RECV HEX>
06 03 02 1B 3C 07 65 

[2019-11-14 10:38:48.928]# SEND HEX>
06 03 00 04 00 01 C4 7C 

[2019-11-14 10:38:48.995]# RECV HEX>
FF FF FF FF FF FF FF FF FF FF FF FF FF FF 06 03 02 1B 3C 07 65 

[2019-11-14 10:38:49.045]# SEND HEX>
06 03 00 04 00 01 C4 7C 

[2019-11-14 10:38:49.112]# RECV HEX>
FF FF FF FF FF FF FF FF FF FF FF FF FF FF 06 03 02 1B 3C 07 65 

[2019-11-14 10:38:49.145]# SEND HEX>
06 03 00 04 00 01 C4 7C 

[2019-11-14 10:38:49.211]# RECV HEX>
FF FF FF FF FF FF FF FF FF FF FF FF FF FF 06 03 02 1B 83 46 D5 

[2019-11-14 10:38:49.279]# SEND HEX>
06 03 00 04 00 01 C4 7C 

[2019-11-14 10:38:49.356]# RECV HEX>
FF FF FF FF FF FF FF FF FF FF FF FF FF FF 06 03 02 1B 83 46 D5 

[2019-11-14 10:38:49.388]# SEND HEX>
06 03 00 04 00 01 C4 7C 

[2019-11-14 10:38:49.462]# RECV HEX>
FF FF FF FF FF FF FF FF FF FF FF FF FF FF 06 03 02 1B 58 06 8E 

[2019-11-14 10:38:49.494]# SEND HEX>
06 03 00 04 00 01 C4 7C 

[2019-11-14 10:38:49.561]# RECV HEX>
06 03 02 1B 58 06 8E 

[2019-11-14 10:38:49.611]# SEND HEX>
06 03 00 04 00 01 C4 7C 

[2019-11-14 10:38:49.695]# RECV HEX>
06 03 02 1B 58 06 8E 

[2019-11-14 10:38:49.724]# SEND HEX>
06 03 00 04 00 01 C4 7C 

[2019-11-14 10:38:49.794]# RECV HEX>
06 03 02 1B 97 46 DA 

[2019-11-14 10:38:49.856]# SEND HEX>
06 03 00 04 00 01 C4 7C 

[2019-11-14 10:38:49.895]# RECV HEX>
06 03 02 1B 97 46 DA 

[2019-11-14 10:38:49.960]# SEND HEX>
06 03 00 04 00 01 C4 7C 

[2019-11-14 10:38:50.045]# RECV HEX>
06 03 02 1B 97 46 DA 

[2019-11-14 10:38:50.073]# SEND HEX>
06 03 00 04 00 01 C4 7C 

[2019-11-14 10:38:50.144]# RECV HEX>
06 03 02 1B AC 07 09 

[2019-11-14 10:38:50.177]# SEND HEX>
06 03 00 04 00 01 C4 7C 

[2019-11-14 10:38:50.244]# RECV HEX>
FF FF FF FF FF FF FF FF FF FF FF FF FF FF 06 03 02 1B AC 07 09 

[2019-11-14 10:38:50.293]# SEND HEX>
06 03 00 04 00 01 C4 7C 

[2019-11-14 10:38:50.360]# RECV HEX>
FF FF FF FF FF FF FF FF FF FF FF FF FF FF 06 03 02 1B DB 47 2F 

[2019-11-14 10:38:50.410]# SEND HEX>
06 03 00 04 00 01 C4 7C 

[2019-11-14 10:38:50.477]# RECV HEX>
FF FF FF FF FF FF FF FF FF FF FF FF FF FF 06 03 02 1B DB 47 2F 

[2019-11-14 10:38:50.527]# SEND HEX>
06 03 00 04 00 01 C4 7C 

[2019-11-14 10:38:50.595]# RECV HEX>
FF FF FF FF FF FF FF FF FF FF FF FF FF FF 06 03 02 1B DB 47 2F 

[2019-11-14 10:38:50.644]# SEND HEX>
06 03 00 04 00 01 C4 7C 

[2019-11-14 10:38:50.711]# RECV HEX>
FF FF FF FF FF FF FF FF FF FF FF FF FF FF 06 03 02 1C 3D C4 95 

[2019-11-14 10:38:50.742]# SEND HEX>
06 03 00 04 00 01 C4 7C 

[2019-11-14 10:38:50.810]# RECV HEX>
FF FF FF FF FF FF FF FF FF FF FF FF FF FF 06 03 02 1C 3D C4 95 

[2019-11-14 10:38:50.859]# SEND HEX>
06 03 00 04 00 01 C4 7C 

[2019-11-14 10:38:50.927]# RECV HEX>
FF FF FF FF FF FF FF FF FF FF FF FF FF FF 06 03 02 1C 3D C4 95 

[2019-11-14 10:38:50.976]# SEND HEX>
06 03 00 04 00 01 C4 7C 

[2019-11-14 10:38:51.043]# RECV HEX>
FF FF FF FF FF FF FF FF FF FF FF FF FF FF 06 03 02 1C A7 44 FE 

[2019-11-14 10:38:51.072]# SEND HEX>
06 03 00 04 00 01 C4 7C 

[2019-11-14 10:38:51.143]# RECV HEX>
06 03 02 1C A7 44 FE 

[2019-11-14 10:38:51.176]# SEND HEX>
06 03 00 04 00 01 C4 7C 

[2019-11-14 10:38:51.243]# RECV HEX>
D0 02 1C A7 44 FE 

[2019-11-14 10:38:51.293]# SEND HEX>
06 03 00 04 00 01 C4 7C 

[2019-11-14 10:38:51.360]# RECV HEX>
06 03 02 1C D6 84 DA 

[2019-11-14 10:38:51.392]# SEND HEX>
06 03 00 04 00 01 C4 7C 

[2019-11-14 10:38:51.477]# RECV HEX>
06 03 02 1C D6 84 DA 

[2019-11-14 10:38:51.508]# SEND HEX>
06 03 00 04 00 01 C4 7C 

[2019-11-14 10:38:51.576]# RECV HEX>
06 03 02 1C D6 84 DA 

[2019-11-14 10:38:51.626]# SEND HEX>
06 03 00 04 00 01 C4 7C 

[2019-11-14 10:38:51.693]# RECV HEX>
06 03 02 1D 7F 45 34 

[2019-11-14 10:38:51.726]# SEND HEX>
06 03 00 04 00 01 C4 7C 

[2019-11-14 10:38:51.793]# RECV HEX>
06 03 02 1D 7F 45 34 

[2019-11-14 10:38:51.855]# SEND HEX>
06 03 00 04 00 01 C4 7C 

[2019-11-14 10:38:51.893]# RECV HEX>
06 03 02 1D A3 44 AD 

[2019-11-14 10:38:51.959]# SEND HEX>
06 03 00 04 00 01 C4 7C 

[2019-11-14 10:38:52.026]# RECV HEX>
FF FF FF FF FF FF FF FF FF FF FF FF FF FF 06 03 02 1D A3 44 AD 

[2019-11-14 10:38:52.075]# SEND HEX>
06 03 00 04 00 01 C4 7C 

[2019-11-14 10:38:52.142]# RECV HEX>
FF FF FF FF FF FF FF FF FF FF FF FF FF FF 06 03 02 1D A3 44 AD 

[2019-11-14 10:38:52.176]# SEND HEX>
06 03 00 04 00 01 C4 7C 

[2019-11-14 10:38:52.242]# RECV HEX>
FF FF FF FF FF FF FF FF FF FF FF FF FF FF 06 03 02 1E 0C 04 21 

[2019-11-14 10:38:52.292]# SEND HEX>
06 03 00 04 00 01 C4 7C 

[2019-11-14 10:38:52.359]# RECV HEX>
FF FF FF FF FF FF FF FF FF FF FF FF FF FF 06 03 02 1E 0C 04 21 

[2019-11-14 10:38:52.407]# SEND HEX>
06 03 00 04 00 01 C4 7C 

[2019-11-14 10:38:52.443]# RECV HEX>
FF FF FF FF FF FF FF FF FF FF FF FF FF FF 06 03 02 1E 0C 04 21 

[2019-11-14 10:38:52.511]# SEND HEX>
06 03 00 04 00 01 C4 7C 

[2019-11-14 10:38:52.575]# RECV HEX>
FF FF FF FF FF FF FF FF FF FF FF FF FF FF 06 03 02 1D 71 C4 F0 

[2019-11-14 10:38:52.625]# SEND HEX>
06 03 00 04 00 01 C4 7C 

[2019-11-14 10:38:52.709]# RECV HEX>
06 03 02 1D 71 C4 F0 

[2019-11-14 10:38:52.721]# SEND HEX>
06 03 00 04 00 01 C4 7C 

[2019-11-14 10:38:52.809]# RECV HEX>
06 03 02 1D 71 C4 F0 

[2019-11-14 10:38:52.841]# SEND HEX>
06 03 00 04 00 01 C4 7C 

[2019-11-14 10:38:52.908]# RECV HEX>
06 03 02 1D 0F 44 D0 

[2019-11-14 10:38:52.958]# SEND HEX>
06 03 00 04 00 01 C4 7C 

[2019-11-14 10:38:53.025]# RECV HEX>
06 03 02 1D 0F 44 D0 

[2019-11-14 10:38:53.057]# SEND HEX>
06 03 00 04 00 01 C4 7C 

[2019-11-14 10:38:53.125]# RECV HEX>
06 03 02 1C 7E 85 64 

[2019-11-14 10:38:53.158]# SEND HEX>
06 03 00 04 00 01 C4 7C 

[2019-11-14 10:38:53.242]# RECV HEX>
06 03 02 1C 7E 85 64 

[2019-11-14 10:38:53.271]# SEND HEX>
06 03 00 04 00 01 C4 7C 

[2019-11-14 10:38:53.341]# RECV HEX>
D0 02 1C 7E 85 64 

[2019-11-14 10:38:53.404]# SEND HEX>
06 03 00 04 00 01 C4 7C 

[2019-11-14 10:38:53.458]# RECV HEX>
D0 02 1C 0C 05 41 

[2019-11-14 10:38:53.491]# SEND HEX>
06 03 00 04 00 01 C4 7C 

[2019-11-14 10:38:53.558]# RECV HEX>
FF FF FF FF FF FF FF FF FF FF FF FF FF FF 06 03 02 1C 0C 05 41 

[2019-11-14 10:38:53.608]# SEND HEX>
06 03 00 04 00 01 C4 7C 

[2019-11-14 10:38:53.674]# RECV HEX>
FF FF FF FF FF FF FF FF FF FF FF FF FF FF 06 03 02 1C 0C 05 41 

[2019-11-14 10:38:53.708]# SEND HEX>
06 03 00 04 00 01 C4 7C 

[2019-11-14 10:38:53.774]# RECV HEX>
FF FF FF FF FF FF FF FF FF FF FF FF FF FF 06 03 02 1C 1C 04 8D 

[2019-11-14 10:38:53.824]# SEND HEX>
06 03 00 04 00 01 C4 7C 

[2019-11-14 10:38:53.885]# RECV HEX>
FF FF FF FF FF FF FF FF FF FF FF FF FF FF 06 03 02 1C 1C 04 8D 

[2019-11-14 10:38:53.924]# SEND HEX>
06 03 00 04 00 01 C4 7C 

